#
#"Frequency / GHz"	"S1,4 [Mag]"	"S1,4 [Pha in deg.]"
#---------------------------------------------------
290.00000000000	0.75678838259300	116.72030890456
290.61000000000	0.75924170855186	111.79008556825
291.22000000000	0.76233050339216	106.82425411906
291.83000000000	0.76598972702531	101.81599081458
292.44000000000	0.77014193639242	96.759223233325
293.05000000000	0.77469747379104	91.648734522669
293.66000000000	0.77955473210017	86.480272441172
294.27000000000	0.78460066174117	81.250665810353
294.88000000000	0.78971170653057	75.957947212199
295.49000000000	0.79475535623241	70.601476733613
296.10000000000	0.79959247803283	65.182057681967
296.71000000000	0.80408053336945	59.702031912028
297.32000000000	0.80807769905616	54.165340196579
297.93000000000	0.81144779589123	48.577532452743
298.54000000000	0.81406579458645	42.945714060926
299.15000000000	0.81582353664330	37.278418251791
299.76000000000	0.81663520185240	31.585400510991
300.37000000000	0.81644200109856	25.877358624074
300.98000000000	0.81521559411560	20.165590346242
301.59000000000	0.81295983446014	14.461608394464
302.20000000000	0.80971061774482	8.7767381320135
302.81000000000	0.80553382569757	3.1217258548900
303.42000000000	0.80052157805068	-2.4936155001672
304.03000000000	0.79478718587652	-8.0607008829402
304.64000000000	0.78845931314080	-13.572392508692
305.25000000000	0.78167588469145	-19.023136842205
305.86000000000	0.77457823416130	-24.409019895429
306.47000000000	0.76730588429106	-29.727748218237
307.08000000000	0.75999222182800	-34.978567689084
307.69000000000	0.75276119546810	-40.162134811062
308.30000000000	0.74572504808402	-45.280355884884
308.91000000000	0.73898300500724	-50.336208586856
309.52000000000	0.73262078171719	-55.333558621482
310.13000000000	0.72671074443941	-60.276981699209
310.74000000000	0.72131255020265	-65.171598466592
311.35000000000	0.71647410225214	-70.022927439320
311.96000000000	0.71223267627551	-74.836758621560
312.57000000000	0.70861609777500	-79.619048441993
313.18000000000	0.70564387752194	-84.375834963468
313.79000000000	0.70332823789325	-89.113171066657
314.40000000000	0.70167498642299	-93.837072478344
315.01000000000	0.70068421316973	-98.553477091950
315.62000000000	0.70035080508453	-103.26821196262
316.23000000000	0.70066478346423	-107.98696457968
316.84000000000	0.70161148012662	-112.71525544217
317.45000000000	0.70317157472712	-117.45840950591
318.06000000000	0.70532102035256	-122.22152466462
318.67000000000	0.70803088789191	-127.00943602166
319.28000000000	0.71126716230812	-131.82667527562
319.89000000000	0.71499052625425	-136.67742507134
320.50000000000	0.71915616868930	-141.56546866079
321.11000000000	0.72371365820196	-146.49413568622
321.72000000000	0.72860692233703	-151.46624535071
322.33000000000	0.73377437481320	-156.48404868418
322.94000000000	0.73914923141293	-161.54917204529
323.55000000000	0.74466005171150	-166.66256440605
324.16000000000	0.75023153687875	-171.82445132381
324.77000000000	0.75578560286717	-177.03429877625
325.38000000000	0.76124273302976	177.70920982750
325.99000000000	0.76652359473061	172.40818019504
326.60000000000	0.77155088164402	167.06549428367
327.21000000000	0.77625131881051	161.68477561770
327.82000000000	0.78055774357509	156.27033127255
328.43000000000	0.78441115535619	150.82707018850
329.04000000000	0.78776261412929	145.36039889954
329.65000000000	0.79057486458978	139.87609732315
330.26000000000	0.79282357224088	134.38017880479
330.87000000000	0.79449807958560	128.87873996877
331.48000000000	0.79560162367056	123.37780691463
332.09000000000	0.79615099695900	117.88318476646
332.70000000000	0.79617567695193	112.40031744395
333.31000000000	0.79571649056035	106.93416377409
333.92000000000	0.79482391180719	101.48909478321
334.53000000000	0.79355611222476	96.068815358395
335.14000000000	0.79197689052864	90.676311648726
335.75000000000	0.79015360217195	85.313823805602
336.36000000000	0.78815519246373	79.982842130137
336.97000000000	0.78605041257144	74.684123545562
337.58000000000	0.78390626991363	69.417724620739
338.19000000000	0.78178673696700	64.183047146316
338.80000000000	0.77975171840832	58.978892457413
339.41000000000	0.77785625780878	53.803521211329
340.02000000000	0.77614995273108	48.654716045537
340.63000000000	0.77467654100489	43.529845333696
341.24000000000	0.77347362037492	38.425927011073
341.85000000000	0.77257246735073	33.339692066492
342.46000000000	0.77199792746188	28.267647741683
343.07000000000	0.77176835682033	23.206140723623
343.68000000000	0.77189560274466	18.151420677455
344.29000000000	0.77238501840386	13.099704386681
344.90000000000	0.77323551257944	8.0472405947224
345.51000000000	0.77443964064747	2.9903754267852
346.12000000000	0.77598374690572	-2.0743819487807
346.73000000000	0.77784817167600	-7.1502939642842
347.34000000000	0.78000753943819	-12.240330331141
347.95000000000	0.78243114673117	-17.347105660209
348.56000000000	0.78508347065125	-22.472820123450
349.17000000000	0.78792482027389	-27.619204489488
349.78000000000	0.79091215382101	-32.787471167417
350.39000000000	0.79400008331213	-37.978273290589
351.00000000000	0.79714208498549	-43.191674389996
351.61000000000	0.80029192688337	-48.427131865535
352.22000000000	0.80340531319463	-53.683498269410
352.83000000000	0.80644172620643	-58.959045342295
353.44000000000	0.80936641837361	-64.251516688628
354.05000000000	0.81215246595895	-69.558215701663
354.66000000000	0.81478273925640	-74.876135380134
355.27000000000	0.81725072847187	-80.202135979905
355.88000000000	0.81956376009881	-85.533168373344
356.49000000000	0.82174172191082	-90.866541006443
357.10000000000	0.82381549801392	-96.200209276310
357.71000000000	0.82582439142712	-101.53304845200
358.32000000000	0.82781137792596	-106.86505957505
358.93000000000	0.82981687859140	-112.19744482053
359.54000000000	0.83187189737284	-117.53249732705
360.15000000000	0.83399186391929	-122.87328312184
360.76000000000	0.83617271578513	-128.22314762086
361.37000000000	0.83839042908809	-133.58513905373
361.98000000000	0.84060435451399	-138.96147893266
362.59000000000	0.84276362288777	-144.35320335984
363.20000000000	0.84481501634892	-149.76004746986
363.81000000000	0.84671042965631	-155.18057139143
364.42000000000	0.84841242813644	-160.61246248715
365.03000000000	0.84989718523829	-166.05291823127
365.64000000000	0.85115487628259	-171.49901980333
366.25000000000	0.85218813964927	-176.94803528390
366.86000000000	0.85300941178476	177.60237416740
367.47000000000	0.85363787176311	172.15404407827
368.08000000000	0.85409652591660	166.70827513064
368.69000000000	0.85440973576132	161.26585734446
369.30000000000	0.85460130716474	155.82712811685
369.91000000000	0.85469313580964	150.39204665486
370.52000000000	0.85470433773939	144.96027250213
371.13000000000	0.85465076831564	139.53124043661
371.74000000000	0.85454483219075	134.10422751650
372.35000000000	0.85439549855786	128.67841046420
372.96000000000	0.85420845204180	123.25291310121
373.57000000000	0.85398632572282	117.82684442249
374.18000000000	0.85372897691454	112.39932834315
374.79000000000	0.85343377781166	106.96952632419
375.40000000000	0.85309590206102	101.53665410186
376.01000000000	0.85270859506448	96.099993678412
376.62000000000	0.85226342083534	90.658901623257
377.23000000000	0.85175048190808	85.212814609511
377.84000000000	0.85115861146985	79.761252982214
378.45000000000	0.85047553878535	74.303823029030
379.06000000000	0.84968803029185	68.840218503596
379.67000000000	0.84878200955438	63.370221837391
380.28000000000	0.84774265964629	57.893705368968
380.89000000000	0.84655451147784	52.410632821564
381.50000000000	0.84520152113034	46.921061175676
382.11000000000	0.84366713836134	41.425143018782
382.72000000000	0.84193436714679	35.923129420621
383.33000000000	0.83998581749593	30.415373392629
383.94000000000	0.83780374597778	24.902334060267
384.55000000000	0.83537008071376	19.384581823233
385.16000000000	0.83266642541455	13.862805015036
385.77000000000	0.82967403689354	8.3378189097846
386.38000000000	0.82637377199892	2.8105783629896
386.99000000000	0.82274600380976	-2.7178040921957
387.60000000000	0.81877051407747	-8.2460322622453
388.21000000000	0.81442638021307	-13.772589351079
388.82000000000	0.80969189163837	-19.295686389435
389.43000000000	0.80454455299461	-24.813191952381
390.04000000000	0.79896126112500	-30.322539072417
390.65000000000	0.79291877854010	-35.820606001263
391.26000000000	0.78639466584815	-41.303569487579
391.87000000000	0.77936887340157	-46.766733215518
392.48000000000	0.77182621649371	-52.204340826913
393.09000000000	0.76375994928843	-57.609393334165
393.70000000000	0.75517658187906	-62.973505099223
394.31000000000	0.74610191785444	-68.286850126209
394.92000000000	0.73658799567189	-73.538268184122
395.53000000000	0.72672018973856	-78.715611858738
396.14000000000	0.71662321583890	-83.806410814067
396.75000000000	0.70646432642998	-88.798895904247
397.36000000000	0.69645180170453	-93.683353956099
397.97000000000	0.68682720462252	-98.453676822888
398.58000000000	0.67785093488640	-103.10885004348
399.19000000000	0.66978227789637	-107.65404461832
399.80000000000	0.66285692347666	-112.10098532742
400.41000000000	0.65726610231355	-116.46740150308
401.02000000000	0.65314143677058	-120.77559600904
401.63000000000	0.65054820636760	-125.05041143435
402.24000000000	0.64948750262034	-129.31702640442
402.85000000000	0.64990558288501	-133.59901773004
403.46000000000	0.65170740013342	-137.91699013082
404.07000000000	0.65477107060992	-142.28787858210
404.68000000000	0.65896071849229	-146.72485300294
405.29000000000	0.66413622033485	-151.23765182481
405.90000000000	0.67015941115335	-155.83314590826
406.51000000000	0.67689705466731	-160.51596362281
407.12000000000	0.68422127148659	-165.28906068161
407.73000000000	0.69200823384300	-170.15417103145
408.34000000000	0.70013588511749	-175.11211594920
408.95000000000	0.70848132289936	179.83702503136
409.56000000000	0.71691835678523	174.69386318316
410.17000000000	0.72531564432217	169.45974482800
410.78000000000	0.73353572416652	164.13686363243
411.39000000000	0.74143519436593	158.72841334957
412.00000000000	0.74886620927295	153.23875343897
412.61000000000	0.75567937459424	147.67356022861
413.22000000000	0.76172799533530	142.03993708107
413.83000000000	0.76687347471305	136.34645917130
414.44000000000	0.77099148581970	130.60313285205
415.05000000000	0.77397836881075	124.82125680107
415.66000000000	0.77575708264516	119.01318225311
416.27000000000	0.77628200222338	113.19198183013
416.88000000000	0.77554192882065	107.37104912969
417.49000000000	0.77356087985092	101.56366201052
418.10000000000	0.77039651732452	95.782549005931
418.71000000000	0.76613640732838	90.039498658007
419.32000000000	0.76089260357753	84.345045190182
419.93000000000	0.75479524922601	78.708251827107
420.54000000000	0.74798595096232	73.136597758044
421.15000000000	0.74061159496855	67.635959679538
421.76000000000	0.73281908133160	62.210667435999
422.37000000000	0.72475121302958	56.863607770472
422.98000000000	0.71654375255904	51.596351029786
423.59000000000	0.70832350128162	46.409281392514
424.20000000000	0.70020718191860	41.301719172844
424.81000000000	0.69230090280512	36.272031267114
425.42000000000	0.68470002542200	31.317730981310
426.03000000000	0.67748931341721	26.435570722238
426.64000000000	0.67074328935300	21.621630869118
427.25000000000	0.66452675496758	16.871406639520
427.86000000000	0.65889544259908	12.179892987970
428.47000000000	0.65389676586560	7.5416662378614
429.08000000000	0.64957063377574	2.9509605274287
429.69000000000	0.64595028921380	-1.5982628021177
430.30000000000	0.64306313253165	-6.1122542487386
430.91000000000	0.64093149397161	-10.597424287263
431.52000000000	0.63957332384355	-15.060300545868
432.13000000000	0.63900277546580	-19.507493344265
432.74000000000	0.63923066172001	-23.945668444321
433.35000000000	0.64026477093764	-28.381525538482
433.96000000000	0.64211003141672	-32.821780793295
434.57000000000	0.64476851618904	-37.273151636077
435.18000000000	0.64823928099221	-41.742341882951
435.79000000000	0.65251802920222	-46.236025224326
436.40000000000	0.65759659834531	-50.760824986400
437.01000000000	0.66346226446891	-55.323287964901
437.62000000000	0.67009686399164	-59.929849984950
438.23000000000	0.67747573870032	-64.586790702723
438.84000000000	0.68556651945466	-69.300175078080
439.45000000000	0.69432777903877	-74.075778985349
440.06000000000	0.70370760539552	-78.918996692781
440.67000000000	0.71364217358283	-83.834728550571
441.28000000000	0.72405442757410	-88.827248312214
441.89000000000	0.73485301928068	-93.900051186310
442.50000000000	0.74593168756122	-99.055686036852
443.11000000000	0.75716928766735	-104.29557808513
443.72000000000	0.76843069233984	-109.61985184102
444.33000000000	0.77956876894863	-115.02716745398
444.94000000000	0.79042758255088	-120.51458668455
445.55000000000	0.80084687613870	-126.07748656179
446.16000000000	0.81066773786878	-131.70953876126
446.77000000000	0.81973919300535	-137.40277017075
447.38000000000	0.82792528047122	-143.14771469128
447.99000000000	0.83511202521350	-148.93365826267
448.60000000000	0.84121363601130	-154.74896927191
449.21000000000	0.84617727415252	-160.58149635920
449.82000000000	0.84998586304519	-166.41900697592
450.43000000000	0.85265862805254	-172.24963456772
451.04000000000	0.85424933074453	-178.06230108528
451.65000000000	0.85484243855977	176.15291510463
452.26000000000	0.85454769614740	170.40448866421
452.87000000000	0.85349370022376	164.69924735258
453.48000000000	0.85182111159934	159.04226597186
454.09000000000	0.84967607656853	153.43684855387
454.70000000000	0.84720430303151	147.88458651511
455.31000000000	0.84454607937019	142.38547662005
455.92000000000	0.84183236818899	136.93808135034
456.53000000000	0.83918197539216	131.53971516765
457.14000000000	0.83669969945195	126.18664248080
457.75000000000	0.83447530814892	120.87427618554
458.36000000000	0.83258316592308	115.59736886201
458.97000000000	0.83108233635785	110.35019168963
459.58000000000	0.83001700269716	105.12669863862
460.19000000000	0.82941707718866	99.920675427736
460.80000000000	0.82929890176153	94.725874095069
461.41000000000	0.82966597425527	89.536134864565
462.02000000000	0.83050966384296	84.345497377081
462.63000000000	0.83180990526640	79.148303366790
463.24000000000	0.83353588348872	73.939292571220
463.85000000000	0.83564673810465	68.713693126629
464.46000000000	0.83809233004461	63.467306975636
465.07000000000	0.84081412131749	58.196589956637
465.68000000000	0.84374622055812	52.898724974825
466.29000000000	0.84681662758935	47.571685925821
466.90000000000	0.84994878094604	42.214294246804
467.51000000000	0.85306295754554	36.826253772650
468.12000000000	0.85607909212166	31.408169004457
468.73000000000	0.85891839379848	25.961540252548
469.34000000000	0.86150684374277	20.488732293362
469.95000000000	0.86377670412561	14.992913179410
470.56000000000	0.86566900533399	9.4779642682883
471.17000000000	0.86713596435772	3.9483621640794
471.78000000000	0.86814282922874	-1.5909642926716
472.39000000000	0.86866921730035	-7.1347963507698
473.00000000000	0.86870984458966	-12.677799808550
473.61000000000	0.86827458884530	-18.214703287485
474.22000000000	0.86738788219173	-23.740471600644
474.83000000000	0.86608748291542	-29.250465899197
475.44000000000	0.86442272291817	-34.740583419515
476.05000000000	0.86245236166877	-40.207371363482
476.66000000000	0.86024219566018	-45.648111488432
477.27000000000	0.85786257380042	-51.060874100412
477.88000000000	0.85538595581860	-56.444542097340
478.49000000000	0.85288462649896	-61.798807315885
479.10000000000	0.85042864808576	-67.124142591215
479.71000000000	0.84808410116995	-72.421753610996
480.32000000000	0.84591163462796	-77.693514866735
480.93000000000	0.84396532041713	-82.941893853048
481.54000000000	0.84229179068319	-88.169867238440
482.15000000000	0.84092962306081	-93.380832134810
482.76000000000	0.83990893480099	-98.578514924066
483.37000000000	0.83925114649106	-103.76687944046
483.98000000000	0.83896888046579	-108.95003571873
484.59000000000	0.83906596632896	-114.13215004441
485.20000000000	0.83953753518512	-119.31735671056
485.81000000000	0.84037019422093	-124.50967170717
486.42000000000	0.84154228329827	-129.71290854796
487.03000000000	0.84302422443466	-134.93059656587
487.64000000000	0.84477898269834	-140.16590226841
488.25000000000	0.84676266238506	-145.42155471174
488.86000000000	0.84892526461856	-150.69977629490
489.47000000000	0.85121163101014	-156.00222084812
490.08000000000	0.85356259212908	-161.32992133658
490.69000000000	0.85591632894300	-166.68324985830
491.30000000000	0.85820994018148	-172.06189281122
491.91000000000	0.86038118945639	-177.46484407043
492.52000000000	0.86237038436208	177.10958130838
493.13000000000	0.86412231784166	171.66371099429
493.74000000000	0.86558818262055	166.20045601172
494.35000000000	0.86672735554199	160.72322848127
494.96000000000	0.86750894308559	155.23583832317
495.57000000000	0.86791298432763	149.74237230815
496.18000000000	0.86793122389106	144.24706026705
496.79000000000	0.86756739445225	138.75413440830
497.40000000000	0.86683698328574	133.26768841502
498.01000000000	0.86576649552122	127.79154312416
498.62000000000	0.86439226413138	122.32912508843
499.23000000000	0.86275888702263	116.88336322552
499.84000000000	0.86091739017202	111.45660707681
500.45000000000	0.85892321884549	106.05056791166
501.06000000000	0.85683414405923	100.66628058439
501.67000000000	0.85470814240477	95.304077736406
502.28000000000	0.85260131521047	89.963551648210
502.89000000000	0.85056635663480	84.643432611321
503.50000000000	0.84865548896728	79.341250291140
504.11000000000	0.84694351588259	74.053503601030
504.72000000000	0.84552984539515	68.780645264943
505.33000000000	0.84439002347662	63.525133426736
505.94000000000	0.84348872833630	58.280503648669
506.55000000000	0.84286245578817	53.040827422473
507.16000000000	0.84253886829125	47.802262363425
507.77000000000	0.84252776719250	42.561264813784
508.38000000000	0.84282677807085	37.314247182763
508.99000000000	0.84342394136283	32.057630895770
509.60000000000	0.84429867250562	26.787944163729
510.21000000000	0.84542223069993	21.501915631249
510.82000000000	0.84675810246377	16.196561279983
511.43000000000	0.84826245024340	10.869266137850
512.04000000000	0.84988469597646	5.5178613739682
512.65000000000	0.85156828227607	0.14069623159612
513.26000000000	0.85325164148760	-5.2632965794512
513.87000000000	0.85486939304377	-10.694544008684
514.48000000000	0.85635377817760	-16.152786716493
515.09000000000	0.85763632677553	-21.637046741420
515.70000000000	0.85864973373702	-27.145611607136
516.31000000000	0.85932990205815	-32.676037661233
516.92000000000	0.85961808788303	-38.225175208917
517.53000000000	0.85946306042823	-43.789217529547
518.14000000000	0.85882316913702	-49.363775078591
518.75000000000	0.85766819465057	-54.943975016784
519.36000000000	0.85598085295071	-60.524584640002
519.97000000000	0.85375782736412	-66.100155355463
520.58000000000	0.85101022426436	-71.665181733390
521.19000000000	0.84776338626449	-77.214268163943
521.80000000000	0.84405604889002	-82.742294162331
522.41000000000	0.83993888659098	-88.244568774349
523.02000000000	0.83547255190501	-93.716965084399
523.63000000000	0.83072535737315	-99.156027522816
524.24000000000	0.82577077541412	-104.55904724986
524.85000000000	0.82068493327801	-109.92410390520
525.46000000000	0.81554426017315	-115.25007493598
526.07000000000	0.81042340770724	-120.53661611211
526.68000000000	0.80539352105659	-125.78411843862
527.29000000000	0.80052089471878	-130.99364741574
527.90000000000	0.79586600933250	-136.16687058178
528.51000000000	0.79148291819805	-141.30597870363
529.12000000000	0.78741893460388	-146.41360508586
529.73000000000	0.78371456280193	-151.49274645577
530.34000000000	0.78040361440050	-156.54668790145
530.95000000000	0.77751345568774	-161.57893348084
531.56000000000	0.77506533778761	-166.59314341982
532.17000000000	0.77307476887086	-171.59307827066
532.78000000000	0.77155189474235	-176.58254997748
533.39000000000	0.77050186040597	178.43462055452
534.00000000000	0.76992513060621	173.45464011247
