#
#"Frequency / GHz"	"S1,4 [Mag]"	"S1,4 [Pha in deg.]"
#---------------------------------------------------
290.00000000000	0.65787165853139	68.989252423950
290.61000000000	0.66404728824955	62.658392844337
291.22000000000	0.66918280526911	56.288438975237
291.83000000000	0.67324036394147	49.898742603449
292.44000000000	0.67622352879834	43.508126706062
293.05000000000	0.67818518078942	37.134048883046
293.66000000000	0.67922133499813	30.791835305107
294.27000000000	0.67946205664047	24.494108693165
294.88000000000	0.67906074529908	18.250443893254
295.49000000000	0.67818311502056	12.067254344774
296.10000000000	0.67699701366264	5.9478866533117
296.71000000000	0.67566389086593	-0.10711748548396
297.32000000000	0.67433234590551	-6.0996415212685
297.93000000000	0.67313384869006	-12.033546702089
298.54000000000	0.67218047589753	-17.914202530161
299.15000000000	0.67156435018107	-23.748032428221
299.76000000000	0.67135839987728	-29.542102921777
300.37000000000	0.67161804575901	-35.303775629556
300.98000000000	0.67238344653277	-41.040432996278
301.59000000000	0.67368197841954	-46.759281181909
302.20000000000	0.67553067589005	-52.467226910482
302.81000000000	0.67793841559752	-58.170819507315
303.42000000000	0.68090768162574	-63.876245042402
304.03000000000	0.68443580476492	-69.589356682453
304.64000000000	0.68851561468531	-75.315723939526
305.25000000000	0.69313546620517	-81.060681362979
305.86000000000	0.69827865738914	-86.829341887579
306.47000000000	0.70392334837541	-92.626521244771
307.08000000000	0.71004446461205	-98.456896829864
307.69000000000	0.71660709357190	-104.32523936691
308.30000000000	0.72356454689238	-110.23574445342
308.91000000000	0.73086204079274	-116.19204484277
309.52000000000	0.73843503612673	-122.19721218140
310.13000000000	0.74620857850669	-128.25358195751
310.74000000000	0.75409784897428	-134.36258034963
311.35000000000	0.76200957490997	-140.52457213428
311.96000000000	0.76984429256210	-146.73873862539
312.57000000000	0.77749944747590	-153.00299876841
313.18000000000	0.78487323250316	-159.31398668379
313.79000000000	0.79186895862421	-165.66709630926
314.40000000000	0.79839965294251	-172.05659901919
315.01000000000	0.80439250062826	-178.47583368663
315.62000000000	0.80979271273697	175.08253867692
316.23000000000	0.81456642392944	168.62623080248
316.84000000000	0.81870230693977	162.16299664100
317.45000000000	0.82221172466830	155.70029518529
318.06000000000	0.82512740436441	149.24497608072
318.67000000000	0.82750078285159	142.80301007012
319.28000000000	0.82939830893396	136.37928228090
319.89000000000	0.83089707836859	129.97745958112
320.50000000000	0.83208020925084	123.59993579111
321.11000000000	0.83303234455493	117.24785145942
321.72000000000	0.83383560597068	110.92117896397
322.33000000000	0.83456623513810	104.61885932689
322.94000000000	0.83529206042208	98.338974499378
323.55000000000	0.83607083170644	92.078937961490
324.16000000000	0.83694938060598	85.835687188780
324.77000000000	0.83796349431005	79.605863717423
325.38000000000	0.83913834175425	73.385969984274
325.99000000000	0.84048926407215	67.172496490737
326.60000000000	0.84202273945599	60.962017623268
327.21000000000	0.84373735560972	54.751258983221
327.82000000000	0.84562466730918	48.537142615157
328.43000000000	0.84766987456159	42.316818494464
329.04000000000	0.84985231788478	36.087690775335
329.65000000000	0.85214584013445	29.847445745577
330.26000000000	0.85451910016208	23.594085683304
330.87000000000	0.85693593774120	17.325969566467
331.48000000000	0.85935588189983	11.041858558339
332.09000000000	0.86173487027871	4.7409619243382
332.70000000000	0.86402621188256	-1.5770221802819
333.31000000000	0.86618178652800	-7.9118767353572
333.92000000000	0.86815343747676	-14.262851554603
334.53000000000	0.86989448376695	-20.628668005709
335.14000000000	0.87136125865519	-27.007544181228
335.75000000000	0.87251457201590	-33.397239902617
336.36000000000	0.87332099796115	-39.795119002476
336.97000000000	0.87375390369945	-46.198224697594
337.58000000000	0.87379416004029	-52.603362687117
338.19000000000	0.87343050532007	-59.007185986835
338.80000000000	0.87265956949020	-65.406275493854
339.41000000000	0.87148559992695	-71.797210867805
340.02000000000	0.86991996154348	-78.176627473556
340.63000000000	0.86798050785451	-84.541256782261
341.24000000000	0.86569093435751	-90.887949681041
341.85000000000	0.86308022930030	-97.213684501858
342.46000000000	0.86018232845940	-103.51556415385
343.07000000000	0.85703605892248	-109.79080942737
343.68000000000	0.85368542074430	-116.03675818397
344.29000000000	0.85018020305471	-122.25088249775
344.90000000000	0.84657686121961	-128.43083741935
345.51000000000	0.84293949412450	-134.57455515832
346.12000000000	0.83934066007828	-140.68039606212
346.73000000000	0.83586166892153	-146.74736151561
347.34000000000	0.83259191142661	-152.77536262224
347.95000000000	0.82962677328826	-158.76552192833
348.56000000000	0.82706377687030	-164.72046508884
349.17000000000	0.82499683962757	-170.64453975253
349.78000000000	0.82350894069732	-176.54388770462
350.39000000000	0.82266399023972	177.57369747502
351.00000000000	0.82249916587589	171.69916485216
351.61000000000	0.82301923056837	165.82283774167
352.22000000000	0.82419421071167	159.93520524289
352.83000000000	0.82596124309088	154.02774579234
353.44000000000	0.82823052314007	148.09363670353
354.05000000000	0.83089438069858	142.12822745953
354.66000000000	0.83383787703758	136.12921208806
355.27000000000	0.83694914717855	130.09650564852
355.88000000000	0.84012800132366	124.03188784127
356.49000000000	0.84329188228088	117.93850785959
357.10000000000	0.84637892411659	111.82034673465
357.71000000000	0.84934838481050	105.68171457315
358.32000000000	0.85217904180907	99.526831982974
358.93000000000	0.85486624514506	93.359517592533
359.54000000000	0.85741827428887	87.182982603227
360.15000000000	0.85985251310948	80.999720387397
360.76000000000	0.86219180168288	74.811473239686
361.37000000000	0.86446118204196	68.619257417174
361.98000000000	0.86668514484503	62.423429454087
362.59000000000	0.86888540866558	56.223779781902
363.20000000000	0.87107921872292	50.019642877831
363.81000000000	0.87327812993588	43.810015941780
364.42000000000	0.87548723253538	37.593680236700
365.03000000000	0.87770478049228	31.369320693307
365.64000000000	0.87992218844354	25.135640259921
366.25000000000	0.88212436765840	18.891465910574
366.86000000000	0.88429037309470	12.635843381023
367.47000000000	0.88639433019536	6.3681177741314
368.08000000000	0.88840660165870	0.087997357596252
368.69000000000	0.89029514254519	-6.2044016676116
369.30000000000	0.89202697991043	-12.508530837727
369.91000000000	0.89356974467586	-18.823405827009
370.52000000000	0.89489318203087	-25.147622645352
371.13000000000	0.89597057331313	-31.479391661147
371.74000000000	0.89678001476328	-37.816586886351
372.35000000000	0.89730551203431	-44.156807897231
372.96000000000	0.89753785910131	-50.497452065297
373.57000000000	0.89747527430607	-56.835795104869
374.18000000000	0.89711461362973	-63.169080589219
374.79000000000	0.89643829100317	-69.494617718544
375.40000000000	0.89550885294148	-75.809843619063
376.01000000000	0.89435489776777	-82.112441498549
376.62000000000	0.89301122051283	-88.400414718672
377.23000000000	0.89151769372253	-94.672158304579
377.84000000000	0.88991794845492	-100.92651600647
378.45000000000	0.88825792696480	-107.16282035865
379.06000000000	0.88658438280252	-113.38091433599
379.67000000000	0.88494340039207	-119.58115438220
380.28000000000	0.88337899625589	-125.76439563107
380.89000000000	0.88193185022414	-131.93196096272
381.50000000000	0.88063819960265	-138.08559608469
382.11000000000	0.87952891452497	-144.22741309465
382.72000000000	0.87862876032152	-150.35982499430
383.33000000000	0.87795584396812	-156.48547343726
383.94000000000	0.87752123725815	-162.60715168988
384.55000000000	0.87732876935812	-168.72772446816
385.16000000000	0.87737498513056	-174.85004609851
385.77000000000	0.87764927141831	179.02312156720
386.38000000000	0.87813415896695	172.88918982855
386.99000000000	0.87880581010773	166.74582033253
387.60000000000	0.87963469959803	160.59099624060
388.21000000000	0.88058648755518	154.42308449460
388.82000000000	0.88162307076712	148.24088631842
389.43000000000	0.88270378500876	142.04367350847
390.04000000000	0.88378671970242	135.83120879963
390.65000000000	0.88483009920290	129.60374944258
391.26000000000	0.88579368179545	123.36203388869
391.87000000000	0.88664012628856	117.10725205411
392.48000000000	0.88733627509186	110.84100006783
393.09000000000	0.88785430153943	104.56522082048
393.70000000000	0.88817266922113	98.282132129120
394.31000000000	0.88827685427777	91.994144943559
394.92000000000	0.88815978970019	85.703774676646
395.53000000000	0.88782200415855	79.413549324919
396.14000000000	0.88727144590616	73.125918430386
396.75000000000	0.88652300288922	66.843167025237
397.36000000000	0.88559775086296	60.567338455011
397.97000000000	0.88452197960657	54.300169397576
398.58000000000	0.88332606122927	48.043039527098
399.19000000000	0.88204323267126	41.796937175383
399.80000000000	0.88070836594765	35.562441084416
400.41000000000	0.87935679379327	29.339716994361
401.02000000000	0.87802324425817	23.128526466070
401.63000000000	0.87674091418883	16.928244170000
402.24000000000	0.87554067731864	10.737879221698
402.85000000000	0.87445037926421	4.5560965852159
403.46000000000	0.87349412742733	-1.6187631352783
404.07000000000	0.87269145927164	-7.7886624843951
404.68000000000	0.87205630087817	-13.955834931321
405.29000000000	0.87159573969180	-20.122726397972
405.90000000000	0.87130882333154	-26.291895574924
406.51000000000	0.87118577911240	-32.465868658399
407.12000000000	0.87120808887196	-38.646963729875
407.73000000000	0.87134965717470	-44.837118744805
408.34000000000	0.87157894273647	-51.037762061321
408.95000000000	0.87186159465541	-57.249750725584
409.56000000000	0.87216303902000	-63.473377832920
410.17000000000	0.87245061422797	-69.708430796945
410.78000000000	0.87269511172111	-75.954275970938
411.39000000000	0.87287178340167	-82.209950146353
412.00000000000	0.87296095992303	-88.474248884306
412.61000000000	0.87294840867430	-94.745809395179
413.22000000000	0.87282550341706	-101.02318952739
413.83000000000	0.87258922359621	-107.30494495668
414.44000000000	0.87224196948849	-113.58970543425
415.05000000000	0.87179117044861	-119.87624926928
415.66000000000	0.87124867064602	-126.16357382953
416.27000000000	0.87062989195138	-132.45095900956
416.88000000000	0.86995279092270	-138.73802034299
417.49000000000	0.86923664233343	-145.02474860683
418.10000000000	0.86850069347806	-151.31153324120
418.71000000000	0.86776274108875	-157.59916755429
419.32000000000	0.86703768654515	-163.88883439782
419.93000000000	0.86633612616445	-170.18207171072
420.54000000000	0.86566303295639	-176.48071800356
421.15000000000	0.86501658548903	177.21316151249
421.76000000000	0.86438719929019	170.89736683766
422.37000000000	0.86375681683269	164.56967119339
422.98000000000	0.86309851327398	158.22794249069
423.59000000000	0.86237647564598	151.87027481482
424.20000000000	0.86154641130112	145.49512555113
424.81000000000	0.86055643473565	139.10145273145
425.42000000000	0.85934846781189	132.68884608661
426.03000000000	0.85786016456450	126.25764427568
426.64000000000	0.85602733688359	119.80903001212
427.25000000000	0.85378681192327	113.34509455310
427.86000000000	0.85107959914724	106.86886350927
428.47000000000	0.84785419049334	100.38427737980
429.08000000000	0.84406976987607	93.896122737807
429.69000000000	0.83969907833530	87.409913544279
430.30000000000	0.83473067828541	80.931726412001
430.91000000000	0.82917039127330	74.467998331870
431.52000000000	0.82304174991321	68.025299802355
432.13000000000	0.81638540115458	61.610099781660
432.74000000000	0.80925751332169	55.228540747727
433.35000000000	0.80172735738446	48.886241864071
433.96000000000	0.79387433568629	42.588145469349
434.57000000000	0.78578480157949	36.338416755323
435.18000000000	0.77754903651330	30.140398834327
435.79000000000	0.76925871672390	23.996616173701
436.40000000000	0.76100510589082	17.908810013592
437.01000000000	0.75287805962223	11.877982065213
437.62000000000	0.74496574499929	5.9044201614166
438.23000000000	0.73735480472601	-0.012316154128667
438.84000000000	0.73013058375483	-5.8734603899669
439.45000000000	0.72337703250368	-11.681147846551
440.06000000000	0.71717601792014	-17.438545642947
440.67000000000	0.71160597557043	-23.149971545827
441.28000000000	0.70674004689386	-28.820969812501
441.89000000000	0.70264398539721	-34.458322966275
442.50000000000	0.69937413867464	-40.069994413811
443.11000000000	0.69697572820429	-45.665011715926
443.72000000000	0.69548150538817	-51.253309279028
444.33000000000	0.69491071988746	-56.845550675047
444.94000000000	0.69526823756002	-62.452946157630
445.55000000000	0.69654360574458	-68.087073112880
446.16000000000	0.69870987746784	-73.759698936070
446.77000000000	0.70172205863721	-79.482598967276
447.38000000000	0.70551512015548	-85.267357421196
447.99000000000	0.71000161327992	-91.125136825529
448.60000000000	0.71506904074979	-97.066401258809
449.21000000000	0.72057727015773	-103.10058071388
449.82000000000	0.72635642888109	-109.23566855501
450.43000000000	0.73220588149365	-115.47775186870
451.04000000000	0.73789503492850	-121.83048610813
451.65000000000	0.74316679705050	-128.29454093180
452.26000000000	0.74774446428575	-134.86706262611
452.87000000000	0.75134255960014	-141.54121739510
453.48000000000	0.75368162996683	-148.30589450260
454.09000000000	0.75450625141138	-155.14565256445
454.70000000000	0.75360459215671	-162.04097998318
455.31000000000	0.75082707829782	-168.96890805320
455.92000000000	0.74610128849547	-175.90396476262
456.53000000000	0.73944042746188	177.18060186994
457.14000000000	0.73094366474857	170.31145493948
457.75000000000	0.72078808451435	163.51380909118
458.36000000000	0.70921356127645	156.81023383325
458.97000000000	0.69650308746214	150.21974035269
459.58000000000	0.68296160662642	143.75721821997
460.19000000000	0.66889619347270	137.43322876040
460.80000000000	0.65459965980187	131.25411180822
461.41000000000	0.64033867149196	125.22233108317
462.02000000000	0.62634653363178	119.33697230241
462.63000000000	0.61282012496982	113.59431352220
463.24000000000	0.59992009442150	107.98840267907
463.85000000000	0.58777333107006	102.51159657989
464.46000000000	0.57647679982064	97.155034061714
465.07000000000	0.56610200972398	91.909031147979
465.68000000000	0.55669958300623	86.763396924051
466.29000000000	0.54830357814170	81.707675795549
466.90000000000	0.54093537059765	76.731325552992
467.51000000000	0.53460700656672	71.823842089599
468.12000000000	0.52932402315881	66.974841249368
468.73000000000	0.52508777889282	62.174105989724
469.34000000000	0.52189735285162	57.411602246640
469.95000000000	0.51975101415044	52.677462230300
470.56000000000	0.51864714512195	47.961942569992
471.17000000000	0.51858457507986	43.255393340913
471.78000000000	0.51956271218996	38.548269917132
472.39000000000	0.52158189192463	33.831151743847
473.00000000000	0.52464369833438	29.094718861472
473.61000000000	0.52875084694258	24.329702045476
474.22000000000	0.53390661564339	19.526842533448
474.83000000000	0.54011396323087	14.676872412601
475.44000000000	0.54737438490179	9.7705131790734
476.05000000000	0.55568647787255	4.7984912117581
476.66000000000	0.56504417184599	-0.24842740292205
477.27000000000	0.57543458702355	-5.3793780392233
477.88000000000	0.58683550138805	-10.603309020118
478.49000000000	0.59921243890963	-15.928857429649
479.10000000000	0.61251543545418	-21.364183557078
479.71000000000	0.62667560377563	-26.916759427904
480.32000000000	0.64160170523923	-32.593109227258
480.93000000000	0.65717704178936	-38.398503370044
481.54000000000	0.67325709799938	-44.336613836738
482.15000000000	0.68966847059523	-50.409146246867
482.76000000000	0.70620969051089	-56.615473591271
483.37000000000	0.72265452892865	-62.952306500270
483.98000000000	0.73875823988034	-69.413443457266
484.59000000000	0.75426689643382	-75.989648800047
485.20000000000	0.76892952737005	-82.668703747113
485.81000000000	0.78251221157365	-89.435663767222
486.42000000000	0.79481275166844	-96.273333939873
487.03000000000	0.80567417890377	-103.16294490221
487.64000000000	0.81499528091149	-110.08498085818
488.25000000000	0.82273666559399	-117.02008508254
488.86000000000	0.82892153643179	-123.94995414632
489.47000000000	0.83363120113649	-130.85813363873
490.08000000000	0.83699614908957	-137.73064500583
490.69000000000	0.83918411456859	-144.55640061897
491.30000000000	0.84038678169818	-151.32739530198
491.91000000000	0.84080668653795	-158.03869038770
492.52000000000	0.84064552582364	-164.68822621540
493.13000000000	0.84009462433296	-171.27650911291
493.74000000000	0.83932786598198	-177.80622028142
494.35000000000	0.83849703748097	175.71821086004
494.96000000000	0.83772929855150	169.29103450549
495.57000000000	0.83712637192630	162.90558423647
496.18000000000	0.83676501155223	156.55464014052
496.79000000000	0.83668630845862	150.23073265443
497.40000000000	0.83691572412845	143.92639328582
498.01000000000	0.83748259359479	137.63445011518
498.62000000000	0.83838036963308	131.34810855854
499.23000000000	0.83958646985843	125.06113034523
499.84000000000	0.84106398248270	118.76796694313
500.45000000000	0.84276335009351	112.46389160848
501.06000000000	0.84462417252837	106.14513907338
501.67000000000	0.84657716034638	99.809062171988
502.28000000000	0.84854576017425	93.454323467679
502.89000000000	0.85044504027131	87.081134531603
503.50000000000	0.85216937157362	80.691203460808
504.11000000000	0.85356939979291	74.284536470738
504.72000000000	0.85458696795626	67.852972108567
505.33000000000	0.85538512224842	61.400963272190
505.94000000000	0.85590957883777	54.944620952484
506.55000000000	0.85604548965057	48.489678226163
507.16000000000	0.85575776533659	42.039489317005
507.77000000000	0.85505104868494	35.598164470918
508.38000000000	0.85395028544526	29.170129569187
508.99000000000	0.85249519822736	22.759622859347
509.60000000000	0.85073743864912	16.370384003357
510.21000000000	0.84873789986879	10.005460800005
510.82000000000	0.84656386751267	3.6670910060402
511.43000000000	0.84428611942848	-2.6433594589849
512.04000000000	0.84197614043047	-8.9254122199822
512.65000000000	0.83970359010648	-15.179454033467
513.26000000000	0.83753411549554	-21.406683707797
513.87000000000	0.83552755439607	-27.609035558138
514.48000000000	0.83373653607659	-33.789086133187
515.09000000000	0.83220545697222	-39.949950207241
515.70000000000	0.83096979003784	-46.095171089863
516.31000000000	0.83005567683821	-52.228609282931
516.92000000000	0.82947974941193	-58.354332515443
517.53000000000	0.82924913236997	-64.476509282545
518.14000000000	0.82936158256333	-70.599307243626
518.75000000000	0.82980573227824	-76.726797198690
519.36000000000	0.83056141104237	-82.862862840146
519.97000000000	0.83160003004398	-89.011116027835
520.58000000000	0.83288502177198	-95.174816908524
521.19000000000	0.83437233635685	-101.35679775141
521.80000000000	0.83601100657151	-107.55938887514
522.41000000000	0.83774380768889	-113.78434453006
523.02000000000	0.83950805919629	-120.03276620379
523.63000000000	0.84123664558482	-126.30502083528
524.24000000000	0.84285937440237	-132.60065239466
524.85000000000	0.84430483821745	-138.91828804256
525.46000000000	0.84550299017783	-145.25554567865
526.07000000000	0.84638865156574	-151.60895904863
526.68000000000	0.84690609519193	-157.97394963966
527.29000000000	0.84701462825082	-164.34488884555
527.90000000000	0.84669468678901	-170.71530272753
528.51000000000	0.84595338402598	-177.07826418259
529.12000000000	0.84482791073741	176.57301812056
529.73000000000	0.84338501774235	170.24447082606
530.34000000000	0.84171539144484	163.94042301632
530.95000000000	0.83992315020840	157.66305761949
531.56000000000	0.83811247319139	151.41221726494
532.17000000000	0.83637461375493	145.18563493295
532.78000000000	0.83477848151060	138.97951922917
533.39000000000	0.83336659431057	132.78931497076
534.00000000000	0.83215628989541	126.61043401608
