#
#"Frequency / GHz"	"S1,1 [Mag]"	"S1,1 [Pha in deg.]"	"Ref.Imp. [Mag]"	"Ref.Imp. [Pha in deg.]"
#---------------------------------------------------------------------------------------------
290.00000000000	0.59055934579465	-70.817755948430	376.73031346177	0.00000000000000
290.61000000000	0.58128643398078	-74.722997330486	376.73031346177	0.00000000000000
291.22000000000	0.57142939097863	-78.577193890017	376.73031346177	0.00000000000000
291.83000000000	0.56102487903410	-82.372556137566	376.73031346177	0.00000000000000
292.44000000000	0.55012018868664	-86.100442152579	376.73031346177	0.00000000000000
293.05000000000	0.53877448013637	-89.751409382609	376.73031346177	0.00000000000000
293.66000000000	0.52705987265319	-93.315323705213	376.73031346177	0.00000000000000
294.27000000000	0.51506227221531	-96.781543166677	376.73031346177	0.00000000000000
294.88000000000	0.50288180584011	-100.13919511153	376.73031346177	0.00000000000000
295.49000000000	0.49063271287655	-103.37756479696	376.73031346177	0.00000000000000
296.10000000000	0.47844253285516	-106.48660969922	376.73031346177	0.00000000000000
296.71000000000	0.46645043182025	-109.45760490822	376.73031346177	0.00000000000000
297.32000000000	0.45480453138976	-112.28390960662	376.73031346177	0.00000000000000
297.93000000000	0.44365815505807	-114.96182161102	376.73031346177	0.00000000000000
298.54000000000	0.43316499176343	-117.49145699158	376.73031346177	0.00000000000000
299.15000000000	0.42347330092491	-119.87755857803	376.73031346177	0.00000000000000
299.76000000000	0.41471944086143	-122.13010843792	376.73031346177	0.00000000000000
300.37000000000	0.40702117491140	-124.26460663261	376.73031346177	0.00000000000000
300.98000000000	0.40047136163270	-126.30189413178	376.73031346177	0.00000000000000
301.59000000000	0.39513271997589	-128.26744958002	376.73031346177	0.00000000000000
302.20000000000	0.39103433126486	-130.19017451682	376.73031346177	0.00000000000000
302.81000000000	0.38817037277842	-132.10078189226	376.73031346177	0.00000000000000
303.42000000000	0.38650128835512	-134.02998931232	376.73031346177	0.00000000000000
304.03000000000	0.38595724961138	-136.00676222398	376.73031346177	0.00000000000000
304.64000000000	0.38644343400200	-138.05683749802	376.73031346177	0.00000000000000
305.25000000000	0.38784642449624	-140.20169030863	376.73031346177	0.00000000000000
305.86000000000	0.39004096493198	-142.45801099919	376.73031346177	0.00000000000000
306.47000000000	0.39289638036151	-144.83766441042	376.73031346177	0.00000000000000
307.08000000000	0.39628205150946	-147.34803587720	376.73031346177	0.00000000000000
307.69000000000	0.40007055832669	-149.99263575927	376.73031346177	0.00000000000000
308.30000000000	0.40414517459719	-152.77183448468	376.73031346177	0.00000000000000
308.91000000000	0.40839751687321	-155.68362222266	376.73031346177	0.00000000000000
309.52000000000	0.41273001580513	-158.72431805221	376.73031346177	0.00000000000000
310.13000000000	0.41705599409865	-161.88918476759	376.73031346177	0.00000000000000
310.74000000000	0.42129933514994	-165.17293068693	376.73031346177	0.00000000000000
311.35000000000	0.42539369167319	-168.57009776526	376.73031346177	0.00000000000000
311.96000000000	0.42928146562150	-172.07534620268	376.73031346177	0.00000000000000
312.57000000000	0.43291268779583	-175.68365111792	376.73031346177	0.00000000000000
313.18000000000	0.43624389138070	-179.39042843105	376.73031346177	0.00000000000000
313.79000000000	0.43923704406985	176.80839364727	376.73031346177	0.00000000000000
314.40000000000	0.44185857951409	172.91634308337	376.73031346177	0.00000000000000
315.01000000000	0.44407855048287	168.93640044640	376.73031346177	0.00000000000000
315.62000000000	0.44586991275193	164.87101375776	376.73031346177	0.00000000000000
316.23000000000	0.44720793948078	160.72212447480	376.73031346177	0.00000000000000
316.84000000000	0.44806975990900	156.49119923113	376.73031346177	0.00000000000000
317.45000000000	0.44843401285129	152.17926350587	376.73031346177	0.00000000000000
318.06000000000	0.44828060407206	147.78693460033	376.73031346177	0.00000000000000
318.67000000000	0.44759055661476	143.31445220432	376.73031346177	0.00000000000000
319.28000000000	0.44634594406871	138.76170548236	376.73031346177	0.00000000000000
319.89000000000	0.44452989818047	134.12825604881	376.73031346177	0.00000000000000
320.50000000000	0.44212668384528	129.41335647014	376.73031346177	0.00000000000000
321.11000000000	0.43912183611084	124.61596406735	376.73031346177	0.00000000000000
321.72000000000	0.43550235522444	119.73474982051	376.73031346177	0.00000000000000
322.33000000000	0.43125695684256	114.76810212351	376.73031346177	0.00000000000000
322.94000000000	0.42637637523236	109.71412501777	376.73031346177	0.00000000000000
323.55000000000	0.42085371759431	104.57063036279	376.73031346177	0.00000000000000
324.16000000000	0.41468486751862	99.335123187081	376.73031346177	0.00000000000000
324.77000000000	0.40786893507277	94.004779213293	376.73031346177	0.00000000000000
325.38000000000	0.40040875013900	88.576413271676	376.73031346177	0.00000000000000
325.99000000000	0.39231139443633	83.046437014646	376.73031346177	0.00000000000000
326.60000000000	0.38358876624943	77.410804035072	376.73031346177	0.00000000000000
327.21000000000	0.37425817034943	71.664940194761	376.73031346177	0.00000000000000
327.82000000000	0.36434292405936	65.803656727737	376.73031346177	0.00000000000000
328.43000000000	0.35387296904228	59.821043563752	376.73031346177	0.00000000000000
329.04000000000	0.34288547734149	53.710340434456	376.73031346177	0.00000000000000
329.65000000000	0.33142543963937	47.463783862723	376.73031346177	0.00000000000000
330.26000000000	0.31954622373489	41.072429388484	376.73031346177	0.00000000000000
330.87000000000	0.30731009185931	34.525950811039	376.73031346177	0.00000000000000
331.48000000000	0.29478866641987	27.812422528363	376.73031346177	0.00000000000000
332.09000000000	0.28206333445074	20.918098263530	376.73031346177	0.00000000000000
332.70000000000	0.26922558020521	13.827211051292	376.73031346177	0.00000000000000
333.31000000000	0.25637723075236	6.5218372394955	376.73031346177	0.00000000000000
333.92000000000	0.24363058765626	-1.0181063446023	376.73031346177	0.00000000000000
334.53000000000	0.23110839374633	-8.8146261802510	376.73031346177	0.00000000000000
335.14000000000	0.21894274468132	-16.891024096001	376.73031346177	0.00000000000000
335.75000000000	0.20727628494236	-25.270674410053	376.73031346177	0.00000000000000
336.36000000000	0.19625996068911	-33.974965836329	376.73031346177	0.00000000000000
336.97000000000	0.18604973444346	-43.020183990638	376.73031346177	0.00000000000000
337.58000000000	0.17680319069226	-52.413241992608	376.73031346177	0.00000000000000
338.19000000000	0.16867356833988	-62.146490727366	376.73031346177	0.00000000000000
338.80000000000	0.16180154069703	-72.192395037054	376.73031346177	0.00000000000000
339.41000000000	0.15630504026351	-82.499541853222	376.73031346177	0.00000000000000
340.02000000000	0.15226830938230	-92.991902956882	376.73031346177	0.00000000000000
340.63000000000	0.14973229265675	-103.57297976576	376.73031346177	0.00000000000000
341.24000000000	0.14868890800363	-114.13508194684	376.73031346177	0.00000000000000
341.85000000000	0.14908110652598	-124.57193067410	376.73031346177	0.00000000000000
342.46000000000	0.15080897853312	-134.79119036710	376.73031346177	0.00000000000000
343.07000000000	0.15374026097756	-144.72351489369	376.73031346177	0.00000000000000
343.68000000000	0.15772247703097	-154.32626911764	376.73031346177	0.00000000000000
344.29000000000	0.16259407207445	-163.58218113855	376.73031346177	0.00000000000000
344.90000000000	0.16819296062966	-172.49461267243	376.73031346177	0.00000000000000
345.51000000000	0.17436212986820	178.91852839143	376.73031346177	0.00000000000000
346.12000000000	0.18095280129584	170.63065993361	376.73031346177	0.00000000000000
346.73000000000	0.18782598076989	162.61131367846	376.73031346177	0.00000000000000
347.34000000000	0.19485316122601	154.82956607554	376.73031346177	0.00000000000000
347.95000000000	0.20191669517180	147.25620361067	376.73031346177	0.00000000000000
348.56000000000	0.20891009044273	139.86487700096	376.73031346177	0.00000000000000
349.17000000000	0.21573828768134	132.63253229417	376.73031346177	0.00000000000000
349.78000000000	0.22231787234175	125.53937519940	376.73031346177	0.00000000000000
350.39000000000	0.22857714290808	118.56856932298	376.73031346177	0.00000000000000
351.00000000000	0.23445597283590	111.70581146220	376.73031346177	0.00000000000000
351.61000000000	0.23990543996672	104.93887759082	376.73031346177	0.00000000000000
352.22000000000	0.24488723468295	98.257194803481	376.73031346177	0.00000000000000
352.83000000000	0.24937288629229	91.651467077188	376.73031346177	0.00000000000000
353.44000000000	0.25334286252545	85.113364602860	376.73031346177	0.00000000000000
354.05000000000	0.25678560061431	78.635275527326	376.73031346177	0.00000000000000
354.66000000000	0.25969652338177	72.210113185615	376.73031346177	0.00000000000000
355.27000000000	0.26207708376966	65.831169566119	376.73031346177	0.00000000000000
355.88000000000	0.26393386937592	59.492005503801	376.73031346177	0.00000000000000
356.49000000000	0.26527778706974	53.186368986848	376.73031346177	0.00000000000000
357.10000000000	0.26612333788013	46.908134359033	376.73031346177	0.00000000000000
357.71000000000	0.26648798464854	40.651256718952	376.73031346177	0.00000000000000
358.32000000000	0.26639160943268	34.409737247664	376.73031346177	0.00000000000000
358.93000000000	0.26585605409326	28.177596441880	376.73031346177	0.00000000000000
359.54000000000	0.26490473550363	21.948853263969	376.73031346177	0.00000000000000
360.15000000000	0.26356232598654	15.717509053133	376.73031346177	0.00000000000000
360.76000000000	0.26185448953273	9.4775357034218	376.73031346177	0.00000000000000
361.37000000000	0.25980766477967	3.2228681362881	376.73031346177	0.00000000000000
361.98000000000	0.25744888638074	-3.0525984899827	376.73031346177	0.00000000000000
362.59000000000	0.25480563709670	-9.3550060580648	376.73031346177	0.00000000000000
363.20000000000	0.25190572355801	-15.690524210403	376.73031346177	0.00000000000000
363.81000000000	0.24877716909415	-22.065333244497	376.73031346177	0.00000000000000
364.42000000000	0.24544811725341	-28.485597752037	376.73031346177	0.00000000000000
365.03000000000	0.24194673961829	-34.957429458369	376.73031346177	0.00000000000000
365.64000000000	0.23830114126644	-41.486837681661	376.73031346177	0.00000000000000
366.25000000000	0.23453925676414	-48.079665893688	376.73031346177	0.00000000000000
366.86000000000	0.23068872897171	-54.741513062645	376.73031346177	0.00000000000000
367.47000000000	0.22677676228383	-61.477638835663	376.73031346177	0.00000000000000
368.08000000000	0.22282994135379	-68.292852222705	376.73031346177	0.00000000000000
368.69000000000	0.21887400603230	-75.191384317954	376.73031346177	0.00000000000000
369.30000000000	0.21493357339910	-82.176746769004	376.73031346177	0.00000000000000
369.91000000000	0.21103179861598	-89.251579175801	376.73031346177	0.00000000000000
370.52000000000	0.20718996813150	-96.417490315933	376.73031346177	0.00000000000000
371.13000000000	0.20342702174105	-103.67489992294	376.73031346177	0.00000000000000
371.74000000000	0.19975900429903	-111.02288947004	376.73031346177	0.00000000000000
372.35000000000	0.19619845351306	-118.45907171859	376.73031346177	0.00000000000000
372.96000000000	0.19275373704943	-125.97948928528	376.73031346177	0.00000000000000
373.57000000000	0.18942835974961	-133.57855174423	376.73031346177	0.00000000000000
374.18000000000	0.18622026946633	-141.24901843993	376.73031346177	0.00000000000000
374.79000000000	0.18312119707517	-148.98203003375	376.73031346177	0.00000000000000
375.40000000000	0.18011607175801	-156.76718587631	376.73031346177	0.00000000000000
376.01000000000	0.17718255598779	-164.59265693710	376.73031346177	0.00000000000000
376.62000000000	0.17429074543080	-172.44531584286	376.73031346177	0.00000000000000
377.23000000000	0.17140307742268	179.68914267368	376.73031346177	0.00000000000000
377.84000000000	0.16847448860044	171.82612529242	376.73031346177	0.00000000000000
378.45000000000	0.16545285911869	163.98214883327	376.73031346177	0.00000000000000
379.06000000000	0.16227977953051	156.17498191626	376.73031346177	0.00000000000000
379.67000000000	0.15889167903252	148.42397471351	376.73031346177	0.00000000000000
380.28000000000	0.15522136268588	140.75064273858	376.73031346177	0.00000000000000
380.89000000000	0.15120002304449	133.17958837053	376.73031346177	0.00000000000000
381.50000000000	0.14675982177605	125.73987362531	376.73031346177	0.00000000000000
382.11000000000	0.14183718474882	118.46700659532	376.73031346177	0.00000000000000
382.72000000000	0.13637702921162	111.40578146169	376.73031346177	0.00000000000000
383.33000000000	0.13033826156075	104.61432969433	376.73031346177	0.00000000000000
383.94000000000	0.12370108027765	98.169907435117	376.73031346177	0.00000000000000
384.55000000000	0.11647694499209	92.177149084581	376.73031346177	0.00000000000000
385.16000000000	0.10872261113463	86.779658593490	376.73031346177	0.00000000000000
385.77000000000	0.10056046196819	82.175483361173	376.73031346177	0.00000000000000
386.38000000000	0.092208394702227	78.634897694614	376.73031346177	0.00000000000000
386.99000000000	0.084022699428070	76.511297079940	376.73031346177	0.00000000000000
387.60000000000	0.076552369573435	76.214893732035	376.73031346177	0.00000000000000
388.21000000000	0.070580914980135	78.078989499018	376.73031346177	0.00000000000000
388.82000000000	0.067077150836168	82.039539093731	376.73031346177	0.00000000000000
389.43000000000	0.066936462534950	87.259825610290	376.73031346177	0.00000000000000
390.04000000000	0.070558551319298	92.246363281260	376.73031346177	0.00000000000000
390.65000000000	0.077639531241651	95.662863097115	376.73031346177	0.00000000000000
391.26000000000	0.087408454753860	96.961456634937	376.73031346177	0.00000000000000
391.87000000000	0.099004260469001	96.263223960605	376.73031346177	0.00000000000000
392.48000000000	0.11168403744878	93.958448615601	376.73031346177	0.00000000000000
393.09000000000	0.12486448648739	90.451893137762	376.73031346177	0.00000000000000
393.70000000000	0.13809743653281	86.075335390589	376.73031346177	0.00000000000000
394.31000000000	0.15103638463359	81.078929350355	376.73031346177	0.00000000000000
394.92000000000	0.16341031095873	75.645962917535	376.73031346177	0.00000000000000
395.53000000000	0.17500563549204	69.909989809022	376.73031346177	0.00000000000000
396.14000000000	0.18565388999790	63.968737184099	376.73031346177	0.00000000000000
396.75000000000	0.19522290221277	57.894295291569	376.73031346177	0.00000000000000
397.36000000000	0.20361007396330	51.740352003144	376.73031346177	0.00000000000000
397.97000000000	0.21073696085598	45.547320374986	376.73031346177	0.00000000000000
398.58000000000	0.21654475162892	39.346022704308	376.73031346177	0.00000000000000
399.19000000000	0.22099046065684	33.160400461787	376.73031346177	0.00000000000000
399.80000000000	0.22404375419489	27.009572934048	376.73031346177	0.00000000000000
400.41000000000	0.22568437803716	20.909468734416	376.73031346177	0.00000000000000
401.02000000000	0.22590017204089	14.874192504462	376.73031346177	0.00000000000000
401.63000000000	0.22468566366323	8.9172541798538	376.73031346177	0.00000000000000
402.24000000000	0.22204123881362	3.0527739160853	376.73031346177	0.00000000000000
402.85000000000	0.21797290047925	-2.7032200420690	376.73031346177	0.00000000000000
403.46000000000	0.21249264926829	-8.3312585514580	376.73031346177	0.00000000000000
404.07000000000	0.20561956270689	-13.806469091332	376.73031346177	0.00000000000000
404.68000000000	0.19738172514647	-19.095892248420	376.73031346177	0.00000000000000
405.29000000000	0.18781929340103	-24.154614971206	376.73031346177	0.00000000000000
405.90000000000	0.17698922659161	-28.919957204475	376.73031346177	0.00000000000000
406.51000000000	0.16497266804172	-33.302414958976	376.73031346177	0.00000000000000
407.12000000000	0.15188686306806	-37.171121802562	376.73031346177	0.00000000000000
407.73000000000	0.13790529297158	-40.329994798853	376.73031346177	0.00000000000000
408.34000000000	0.12329335220604	-42.478413632220	376.73031346177	0.00000000000000
408.95000000000	0.10847407181104	-43.148991503607	376.73031346177	0.00000000000000
409.56000000000	0.094150200175482	-41.626234981218	376.73031346177	0.00000000000000
410.17000000000	0.081513207687365	-36.924378458824	376.73031346177	0.00000000000000
410.78000000000	0.072480593332490	-28.167287117398	376.73031346177	0.00000000000000
411.39000000000	0.069496667079227	-15.945783962825	376.73031346177	0.00000000000000
412.00000000000	0.074160319559378	-3.4553158402094	376.73031346177	0.00000000000000
412.61000000000	0.085868970602200	5.8668643010201	376.73031346177	0.00000000000000
413.22000000000	0.10267084755459	11.115066711404	376.73031346177	0.00000000000000
413.83000000000	0.12276267503274	13.078217405512	376.73031346177	0.00000000000000
414.44000000000	0.14492706326510	12.766887421209	376.73031346177	0.00000000000000
415.05000000000	0.16839380831909	10.936024900623	376.73031346177	0.00000000000000
415.66000000000	0.19265785187635	8.0833502199498	376.73031346177	0.00000000000000
416.27000000000	0.21736463159854	4.5304186561827	376.73031346177	0.00000000000000
416.88000000000	0.24224747032930	0.48797708321957	376.73031346177	0.00000000000000
417.49000000000	0.26709222833383	-3.9022835709087	376.73031346177	0.00000000000000
418.10000000000	0.29172514657907	-8.5424011330400	376.73031346177	0.00000000000000
418.71000000000	0.31599723576900	-13.362786217798	376.73031346177	0.00000000000000
419.32000000000	0.33978033463957	-18.312750159648	376.73031346177	0.00000000000000
419.93000000000	0.36296315259074	-23.354526376164	376.73031346177	0.00000000000000
420.54000000000	0.38544978940312	-28.459406608728	376.73031346177	0.00000000000000
421.15000000000	0.40716067879905	-33.605188560595	376.73031346177	0.00000000000000
421.76000000000	0.42802859841946	-38.774456797843	376.73031346177	0.00000000000000
422.37000000000	0.44799921328242	-43.953405071583	376.73031346177	0.00000000000000
422.98000000000	0.46703046112093	-49.131016690046	376.73031346177	0.00000000000000
423.59000000000	0.48509186673086	-54.298484641413	376.73031346177	0.00000000000000
424.20000000000	0.50216373290644	-59.448793294762	376.73031346177	0.00000000000000
424.81000000000	0.51823619119019	-64.576409183098	376.73031346177	0.00000000000000
425.42000000000	0.53330812401045	-69.677045384005	376.73031346177	0.00000000000000
426.03000000000	0.54738598989723	-74.747475611285	376.73031346177	0.00000000000000
426.64000000000	0.56048259494710	-79.785382167548	376.73031346177	0.00000000000000
427.25000000000	0.57261585717902	-84.789227481211	376.73031346177	0.00000000000000
427.86000000000	0.58380760744461	-89.758142758310	376.73031346177	0.00000000000000
428.47000000000	0.59408246319559	-94.691829801849	376.73031346177	0.00000000000000
429.08000000000	0.60346680178108	-99.590473647257	376.73031346177	0.00000000000000
429.69000000000	0.61198784984700	-104.45466460836	376.73031346177	0.00000000000000
430.30000000000	0.61967289614094	-109.28532883769	376.73031346177	0.00000000000000
430.91000000000	0.62654862736194	-114.08366673840	376.73031346177	0.00000000000000
431.52000000000	0.63264058095091	-118.85109863825	376.73031346177	0.00000000000000
432.13000000000	0.63797270487633	-123.58921712705	376.73031346177	0.00000000000000
432.74000000000	0.64256701230593	-128.29974541815	376.73031346177	0.00000000000000
433.35000000000	0.64644331824805	-132.98450104896	376.73031346177	0.00000000000000
433.96000000000	0.64961904545672	-137.64536420067	376.73031346177	0.00000000000000
434.57000000000	0.65210908781472	-142.28424989598	376.73031346177	0.00000000000000
435.18000000000	0.65392572078647	-146.90308332564	376.73031346177	0.00000000000000
