#
#"Frequency / GHz"	"S1,4 [Mag]"	"S1,4 [Pha in deg.]"
#---------------------------------------------------
290.00000000000	0.81898488528800	8.1526964515534
290.61000000000	0.82039529531284	1.1652093753482
291.22000000000	0.82234954156614	-5.8296832168418
291.83000000000	0.82480376371563	-12.841084399956
292.44000000000	0.82769005477442	-19.877128400960
293.05000000000	0.83091792301445	-26.944664059734
293.66000000000	0.83437619705773	-34.048970703672
294.27000000000	0.83793769273878	-41.193509275491
294.88000000000	0.84146420365659	-48.379726245355
295.49000000000	0.84481259680765	-55.606927905341
296.10000000000	0.84784190339999	-62.872244885135
296.71000000000	0.85042109970657	-70.170704899664
297.32000000000	0.85243707112553	-77.495425955538
297.93000000000	0.85380208861076	-84.837932565088
298.54000000000	0.85446004761066	-92.188584931704
299.15000000000	0.85439076208249	-99.537097486617
299.76000000000	0.85361178126636	-106.87311108783
300.37000000000	0.85217748214795	-114.18677515867
300.98000000000	0.85017553199649	-121.46929388208
301.59000000000	0.84772114186377	-128.71339487841
302.20000000000	0.84494977594158	-135.91368875353
302.81000000000	0.84200909881197	-143.06690149551
303.42000000000	0.83905092241049	-150.17197627371
304.03000000000	0.83622377927005	-157.23005416161
304.64000000000	0.83366654264429	-164.24435271219
305.25000000000	0.83150328857428	-171.21996619762
305.86000000000	0.82983939416325	-178.16361175300
306.47000000000	0.82875871929795	174.91665747629
307.08000000000	0.82832163757856	168.01175644674
307.69000000000	0.82856366386581	161.11188001852
308.30000000000	0.82949445961582	154.20681863731
308.91000000000	0.83109706901682	147.28627857350
309.52000000000	0.83332733557933	140.34021008036
310.13000000000	0.83611355899198	133.35914743713
310.74000000000	0.83935656552592	126.33456324503
311.35000000000	0.84293047051334	119.25923552922
311.96000000000	0.84668449289343	112.12762029369
312.57000000000	0.85044621836729	104.93621456175
313.18000000000	0.85402667364350	97.683886420979
313.79000000000	0.85722744455175	90.372140559538
314.40000000000	0.85984983102462	83.005282206443
315.01000000000	0.86170569148000	75.590441608311
315.62000000000	0.86262923292119	68.137427325907
316.23000000000	0.86248863426812	60.658390808862
316.84000000000	0.86119615653722	53.167306092779
317.45000000000	0.85871539411654	45.679293877424
318.06000000000	0.85506460659879	38.209843506951
318.67000000000	0.85031560875098	30.774003630782
319.28000000000	0.84458837105930	23.385617970327
319.89000000000	0.83804212866150	16.056674993573
320.50000000000	0.83086425471945	8.7968213638345
321.11000000000	0.82325833159410	1.6130636334191
321.72000000000	0.81543226720884	-5.4903408058118
322.33000000000	0.80758932941046	-12.511835137551
322.94000000000	0.79992055253958	-19.452383212736
323.55000000000	0.79259813853899	-26.315194630392
324.16000000000	0.78577270373990	-33.105409717568
324.77000000000	0.77957178720687	-39.829765631990
325.38000000000	0.77409972874352	-46.496269656128
325.99000000000	0.76943848078936	-53.113894969049
326.60000000000	0.76564883100965	-59.692311266542
327.21000000000	0.76277200149063	-66.241636430224
327.82000000000	0.76083138325980	-72.772205147315
328.43000000000	0.75983318702869	-79.294441020714
329.04000000000	0.75976773072403	-85.818647607347
329.65000000000	0.76061040129358	-92.354840690903
330.26000000000	0.76232193097857	-98.912613550947
330.87000000000	0.76484858732590	-105.50098984468
331.48000000000	0.76812221332655	-112.12827392618
332.09000000000	0.77206023740054	-118.80189574910
332.70000000000	0.77656580442036	-125.52824929331
333.31000000000	0.78152820732268	-132.31252578209
333.92000000000	0.78682381925691	-139.15854587927
334.53000000000	0.79231773082670	-146.06859852197
335.14000000000	0.79786627581350	-153.04329779667
335.75000000000	0.80332057183971	-160.08147278343
336.36000000000	0.80853110328982	-167.18010779406
336.97000000000	0.81335323400956	-174.33435097390
337.58000000000	0.81765337034815	178.46239305490
338.19000000000	0.82131532787251	171.21827647558
338.80000000000	0.82424632464638	163.94272629079
339.41000000000	0.82638196908642	156.64607689737
340.02000000000	0.82768965922615	149.33913844453
340.63000000000	0.82816996843044	142.03273171285
341.24000000000	0.82785583742391	134.73722577725
341.85000000000	0.82680967625603	127.46211491102
342.46000000000	0.82511874295512	120.21566589675
343.07000000000	0.82288935432852	113.00465723573
343.68000000000	0.82024056596658	105.83421971932
344.29000000000	0.81729792874382	98.707775830801
344.90000000000	0.81418780969684	91.627065617222
345.51000000000	0.81103259406725	84.592240426003
346.12000000000	0.80794690443874	77.602003734275
346.73000000000	0.80503481748437	70.653779803340
347.34000000000	0.80238795090386	63.743894985020
347.95000000000	0.80008423964677	56.867761770601
348.56000000000	0.79818721543509	50.020060726809
349.17000000000	0.79674563247965	43.194919293963
349.78000000000	0.79579332798123	36.386088570690
350.39000000000	0.79534925373501	29.587119770830
351.00000000000	0.79541765562028	22.791541482341
351.61000000000	0.79598840775558	15.993037777736
352.22000000000	0.79703752905913	9.1856261055148
352.83000000000	0.79852792546970	2.3638329830549
353.44000000000	0.80041041464828	-4.4771351794972
354.05000000000	0.80262510357079	-11.341229440367
354.66000000000	0.80510320299742	-18.231408060302
355.27000000000	0.80776937429252	-25.149504214056
355.88000000000	0.81054470919633	-32.096119594805
356.49000000000	0.81335043447599	-39.070555416675
357.10000000000	0.81611239807337	-46.070797548269
357.71000000000	0.81876630981027	-53.093579473076
358.32000000000	0.82126354468631	-60.134554689274
358.93000000000	0.82357702854285	-67.188616179520
359.54000000000	0.82570628429163	-74.250398088656
360.15000000000	0.82768015709994	-81.314972222299
360.76000000000	0.82955525135177	-88.378695362576
361.37000000000	0.83140813573740	-95.440066768435
361.98000000000	0.83332051257090	-102.50034161308
362.59000000000	0.83535915216690	-109.56358562298
363.20000000000	0.83755580006361	-116.63594692027
363.81000000000	0.83989442655409	-123.72420529725
364.42000000000	0.84231175330547	-130.83402454856
365.03000000000	0.84471167294413	-137.96853564963
365.64000000000	0.84698795209568	-145.12774070968
366.25000000000	0.84904657996801	-152.30883005664
366.86000000000	0.85082086390283	-159.50712279883
367.47000000000	0.85227686837902	-166.71719133299
368.08000000000	0.85341082961546	-173.93381772981
368.69000000000	0.85424199650052	178.84738129835
369.30000000000	0.85480415078074	171.62966289494
369.91000000000	0.85513792209665	164.41511856670
370.52000000000	0.85528484297669	157.20478789459
371.13000000000	0.85528328538259	149.99884411787
371.74000000000	0.85516601310976	142.79679739540
372.35000000000	0.85495895398404	135.59768539020
372.96000000000	0.85468081254046	128.40023743340
373.57000000000	0.85434321717897	121.20300844557
374.18000000000	0.85395117710793	114.00448397440
374.79000000000	0.85350369394427	106.80316000311
375.40000000000	0.85299442601297	99.597601902524
376.01000000000	0.85241234170094	92.386486830531
376.62000000000	0.85174232484582	85.168633460918
377.23000000000	0.85096571309507	77.943022372183
377.84000000000	0.85006076178986	70.708809856117
378.45000000000	0.84900303283091	63.465337371358
379.06000000000	0.84776571122920	56.212138403453
379.67000000000	0.84631985233946	48.948944134355
380.28000000000	0.84463456068575	41.675689113610
380.89000000000	0.84267709745766	34.392518118204
381.50000000000	0.84041290911059	27.099795661079
382.11000000000	0.83780556547238	19.798120248082
382.72000000000	0.83481659446655	12.488346592141
383.33000000000	0.83140520495153	5.1716206844590
383.94000000000	0.82752790281980	-2.1505650027571
384.55000000000	0.82313803209154	-9.4762858611683
385.16000000000	0.81818531694122	-16.803055437737
385.77000000000	0.81261555643510	-24.127635769364
386.38000000000	0.80637076643543	-31.445771571394
386.99000000000	0.79939029239700	-38.751832455893
387.60000000000	0.79161365329303	-46.038349107058
388.21000000000	0.78298603193625	-53.295444849759
388.82000000000	0.77346744026005	-60.510206106365
389.43000000000	0.76304656713140	-67.666103388224
390.04000000000	0.75175980378980	-74.742662861164
390.65000000000	0.73971453674658	-81.715691429907
391.26000000000	0.72711314466711	-88.558584214657
391.87000000000	0.71427120214509	-95.244859965877
392.48000000000	0.70162060971630	-101.75226361720
393.09000000000	0.68968826125411	-108.06796722288
393.70000000000	0.67904608186546	-114.19366092249
394.31000000000	0.67023850853983	-120.14875848050
394.92000000000	0.66370485380584	-125.97006457057
395.53000000000	0.65971947266655	-131.70738401527
396.14000000000	0.65836733785449	-137.41623518709
396.75000000000	0.65955864516886	-143.15003632016
397.36000000000	0.66307166485010	-148.95409465039
397.97000000000	0.66860598295796	-154.86260216611
398.58000000000	0.67583023661360	-160.89848224299
399.19000000000	0.68441556035178	-167.07509193068
399.80000000000	0.69405319451853	-173.39864429587
400.41000000000	0.70445924572630	-179.87051535153
401.02000000000	0.71537120442752	173.51099286737
401.63000000000	0.72654057302089	166.74954385465
402.24000000000	0.73772496830094	159.85024271894
402.85000000000	0.74868202481284	152.81955230467
403.46000000000	0.75916659225103	145.66549014992
404.07000000000	0.76893207631159	138.39795705740
404.68000000000	0.77773620152989	131.02906456990
405.29000000000	0.78535086503418	123.57334653573
405.90000000000	0.79157505967758	116.04776146032
406.51000000000	0.79624913369965	108.47142225421
407.12000000000	0.79926808334278	100.86503173490
407.73000000000	0.80059136393963	93.250054913008
408.34000000000	0.80024704529344	85.647715781043
408.95000000000	0.79832908864302	78.077954381383
409.56000000000	0.79498793647793	70.558503647199
410.17000000000	0.79041612038171	63.104231258077
410.78000000000	0.78483172046449	55.726834998576
411.39000000000	0.77846282269022	48.434892037823
412.00000000000	0.77153545529273	41.234171442956
412.61000000000	0.76426608803082	34.128061274201
413.22000000000	0.75685824105011	27.117961819306
413.83000000000	0.74950171944431	20.203551633031
414.44000000000	0.74237279989530	13.382911602617
415.05000000000	0.73563420881453	6.6525548003908
415.66000000000	0.72943449943415	0.0074332506285522
416.27000000000	0.72390702904687	-6.5590205839908
416.88000000000	0.71916896997687	-13.054790884869
417.49000000000	0.71532071556141	-19.489116746703
418.10000000000	0.71244583082891	-25.872291398009
418.71000000000	0.71061149162129	-32.215446309877
419.32000000000	0.70986922684676	-38.530339711836
419.93000000000	0.71025573375581	-44.829161150316
420.54000000000	0.71179355139827	-51.124355970821
421.15000000000	0.71449142336535	-57.428467684203
421.76000000000	0.71834423580369	-63.753992441195
422.37000000000	0.72333246896177	-70.113237945917
422.98000000000	0.72942114677243	-76.518178517653
423.59000000000	0.73655831105834	-82.980298101089
424.20000000000	0.74467309014551	-89.510413386636
424.81000000000	0.75367348383988	-96.118469591270
425.42000000000	0.76344405769829	-102.81330194661
426.03000000000	0.77384383905038	-109.60235711985
426.64000000000	0.78470483950076	-116.49137183870
427.25000000000	0.79583178259789	-123.48401254128
427.86000000000	0.80700375319395	-130.58149135885
428.47000000000	0.81797853658835	-137.78219022127
429.08000000000	0.82850028959041	-145.08134377667
429.69000000000	0.83831080511006	-152.47084747772
430.30000000000	0.84716398647235	-159.93926206653
430.91000000000	0.85484233834584	-167.47207330847
431.52000000000	0.86117352278765	-175.05223429590
432.13000000000	0.86604458983966	177.33902811506
432.74000000000	0.86941158520723	169.72121008933
433.35000000000	0.87130291236852	162.11343668033
433.96000000000	0.87181592478967	154.53339976405
434.57000000000	0.87110743193973	146.99644255085
435.18000000000	0.86937977810616	139.51487493009
435.79000000000	0.86686465957131	132.09756163524
436.40000000000	0.86380682809571	124.74978254844
437.01000000000	0.86044939827622	117.47333076916
437.62000000000	0.85702183424432	110.26679416036
438.23000000000	0.85373103811838	103.12596008105
438.84000000000	0.85075543830601	96.044287803939
439.45000000000	0.84824164069713	89.013404294205
440.06000000000	0.84630305586911	82.023592449033
440.67000000000	0.84501990971929	75.064253538746
441.28000000000	0.84444013144705	68.124335712551
441.89000000000	0.84458074494456	61.192727384769
442.50000000000	0.84542953323844	54.258618183980
443.11000000000	0.84694687933340	47.311831407896
443.72000000000	0.84906779934439	40.343131198832
444.33000000000	0.85170427002288	33.344505519845
444.94000000000	0.85474800986211	26.309422930423
445.55000000000	0.85807389736674	19.233057485792
446.16000000000	0.86154419602562	12.112472172469
446.77000000000	0.86501369607945	4.9467476685650
447.38000000000	0.86833577413433	-2.2629593205263
447.99000000000	0.87136921748352	-9.5134443307826
448.60000000000	0.87398547893176	-16.799583536119
449.21000000000	0.87607585325743	-24.114569516945
449.82000000000	0.87755794132355	-31.450252024956
450.43000000000	0.87838073379577	-38.797569676166
451.04000000000	0.87852772896405	-46.147046828378
451.65000000000	0.87801769601287	-53.489320656396
452.26000000000	0.87690297274194	-60.815658693916
452.87000000000	0.87526548821382	-68.118427955626
453.48000000000	0.87321096238852	-75.391482969414
454.09000000000	0.87086190533294	-82.630450204966
454.70000000000	0.86835009350380	-89.832898301260
455.31000000000	0.86580914574726	-96.998394890947
455.92000000000	0.86336768689203	-104.12845989338
456.53000000000	0.86114341351850	-111.22643091505
457.14000000000	0.85923820477445	-118.29725872788
457.75000000000	0.85773428094123	-125.34725023435
458.36000000000	0.85669132024200	-132.38377379744
458.97000000000	0.85614440410606	-139.41493834303
459.58000000000	0.85610266782220	-146.44925417069
460.19000000000	0.85654857719662	-153.49528068703
460.80000000000	0.85743782011830	-160.56126483498
461.41000000000	0.85869988140847	-167.65477415965
462.02000000000	0.86023944551474	-174.78233035245
462.63000000000	0.86193882843402	178.05094734213
463.24000000000	0.86366165995592	170.84167464979
463.85000000000	0.86525800190843	163.58849111288
464.46000000000	0.86657098311353	156.29228076697
465.07000000000	0.86744485259678	148.95629721835
465.68000000000	0.86773411184039	141.58616629254
466.29000000000	0.86731311982797	134.18974489936
466.90000000000	0.86608532863042	126.77682567549
467.51000000000	0.86399117132316	119.35869259622
468.12000000000	0.86101364861378	111.94755087501
468.73000000000	0.85718087319059	104.55587167637
469.34000000000	0.85256520777977	97.195704677003
469.95000000000	0.84727909886435	89.878016296280
470.56000000000	0.84146815714099	82.612107218093
471.17000000000	0.83530220256930	75.405165206797
471.78000000000	0.82896603658078	68.261922876793
472.39000000000	0.82264986202922	61.184479226055
473.00000000000	0.81654034083440	54.172309789856
473.61000000000	0.81081368517433	47.222340475021
474.22000000000	0.80563015621286	40.329124964959
474.83000000000	0.80113013133414	33.485080914950
475.44000000000	0.79743149100475	26.680759031354
476.05000000000	0.79462796604250	19.905125123348
476.66000000000	0.79278804521902	13.145842456820
477.27000000000	0.79195405646673	6.3895491858628
477.88000000000	0.79214108830832	-0.37786738757270
478.49000000000	0.79333550341464	-7.1709917960515
479.10000000000	0.79549291251424	-14.004583219046
479.71000000000	0.79853562219807	-20.893241271446
480.32000000000	0.80234971641474	-27.851010310033
480.93000000000	0.80678202200244	-34.890897297448
481.54000000000	0.81163732014907	-42.024296234025
482.15000000000	0.81667664340392	-49.260343444788
482.76000000000	0.82161822494084	-56.605230169386
483.37000000000	0.82614269716142	-64.061480978409
483.98000000000	0.82990348883951	-71.627238189962
484.59000000000	0.83254287619764	-79.295653835204
485.20000000000	0.83371345519075	-87.054519130035
485.81000000000	0.83310409832329	-94.886250642137
486.42000000000	0.83046735969443	-102.76833686305
487.03000000000	0.82564392435787	-110.67426338635
487.64000000000	0.81858054008151	-118.57487331597
488.25000000000	0.80933733630374	-126.44003047276
488.86000000000	0.79808295262095	-134.24038436800
489.47000000000	0.78507828492475	-141.94901469797
490.08000000000	0.77065192595164	-149.54276212414
490.69000000000	0.75517170290780	-157.00312200834
491.30000000000	0.73901679759724	-164.31666493906
491.91000000000	0.72255396756246	-171.47502657229
492.52000000000	0.70611987909333	-178.47456183612
493.13000000000	0.69001005840362	174.68422040115
493.74000000000	0.67447383431748	167.99733144573
494.35000000000	0.65971401414442	161.45799644523
494.96000000000	0.64588984849216	155.05730577659
495.57000000000	0.63312195633775	148.78478814891
496.18000000000	0.62149814866274	142.62888968807
496.79000000000	0.61107939497181	136.57735733704
497.40000000000	0.60190544550229	130.61753342131
498.01000000000	0.59399983530672	124.73657168210
498.62000000000	0.58737415088102	118.92158640594
499.23000000000	0.58203153558666	113.15974566867
499.84000000000	0.57796947200542	107.43831760232
500.45000000000	0.57518192822996	101.74467518751
501.06000000000	0.57366103223199	96.066259364262
501.67000000000	0.57339865855293	90.390491354087
502.28000000000	0.57438905546144	84.704623056390
502.89000000000	0.57663612074918	78.995631637950
503.50000000000	0.58017390144865	73.251327536039
504.11000000000	0.58507384102192	67.468283790704
504.72000000000	0.59120554276111	61.656482297585
505.33000000000	0.59824927243734	55.790024505118
505.94000000000	0.60629530422792	49.835896794493
506.55000000000	0.61543086971438	43.787945954977
507.16000000000	0.62562066448012	37.642040443665
507.77000000000	0.63679065353950	31.392010696393
508.38000000000	0.64884955150388	25.031409992710
508.99000000000	0.66168944832190	18.554555351918
509.60000000000	0.67518377252468	11.957064464608
510.21000000000	0.68918592788891	5.2362116664814
510.82000000000	0.70352931378243	-1.6087863665456
511.43000000000	0.71802908381067	-8.5765332527645
512.04000000000	0.73248591151627	-15.663276256519
512.65000000000	0.74669188602589	-22.862816625112
513.26000000000	0.76043841098878	-30.166536520315
513.87000000000	0.77352565128159	-37.563567239248
514.48000000000	0.78577272547308	-45.041111014053
515.09000000000	0.79702756507255	-52.584910347491
515.70000000000	0.80717524427021	-60.179837709927
516.31000000000	0.81614368734794	-67.810558885668
516.92000000000	0.82390598898500	-75.462209835226
517.53000000000	0.83047907344317	-83.121022826199
518.14000000000	0.83591896382079	-90.774843629081
518.75000000000	0.84031341585207	-98.413496308166
519.36000000000	0.84377300395107	-106.02897283393
519.97000000000	0.84642188404148	-113.61544876058
520.58000000000	0.84838937926704	-121.16915139525
521.19000000000	0.84980322817204	-128.68812996800
521.80000000000	0.85078480986728	-136.17199109695
522.41000000000	0.85144602709195	-143.62165648637
523.02000000000	0.85188706117485	-151.03916756903
523.63000000000	0.85219423303489	-158.42751642518
524.24000000000	0.85243775333444	-165.79045428136
524.85000000000	0.85266981586911	-173.13224089186
525.46000000000	0.85292375204131	179.54266053972
526.07000000000	0.85321468163693	172.22990182777
526.68000000000	0.85354158366211	164.92553253162
527.29000000000	0.85389035136216	157.62621407502
527.90000000000	0.85423731617040	150.32935499274
528.51000000000	0.85455283057556	143.03317292503
529.12000000000	0.85480464885210	135.73669555795
529.73000000000	0.85496095768582	128.43971324410
530.34000000000	0.85499297158084	121.14269436904
530.95000000000	0.85487703703920	113.84667288307
531.56000000000	0.85459620522728	106.55311648806
532.17000000000	0.85414124860372	99.263783624733
532.78000000000	0.85351111820179	91.980577258968
533.39000000000	0.85271286466056	84.705403166049
534.00000000000	0.85176107435681	77.440039745920
