#
#"Frequency / GHz"	"S1,4 [Mag]"	"S1,4 [Pha in deg.]"
#---------------------------------------------------
290.00000000000	0.72470273576374	171.33159845096
290.61000000000	0.72899914774360	165.56475682054
291.22000000000	0.73362226339431	159.75475244947
291.83000000000	0.73849472334770	153.89772560116
292.44000000000	0.74352878991496	147.99063064085
293.05000000000	0.74862661081553	142.03141079092
293.66000000000	0.75368073035013	136.01916554133
294.27000000000	0.75857656017251	129.95430825572
294.88000000000	0.76319541720034	123.83869323393
295.49000000000	0.76741849634264	117.67569502857
296.10000000000	0.77113161874773	111.47022336159
296.71000000000	0.77423046939076	105.22866058857
297.32000000000	0.77662592198495	98.958714505557
297.93000000000	0.77824896936298	92.669187093744
298.54000000000	0.77905475778712	86.369668740234
299.15000000000	0.77902527973258	80.070176287250
299.76000000000	0.77817041175571	73.780760437115
300.37000000000	0.77652717391871	67.511112194832
300.98000000000	0.77415730124341	61.270198288758
301.59000000000	0.77114341519736	55.065951770103
302.20000000000	0.76758422786749	48.905036965594
302.81000000000	0.76358928068591	42.792698976603
303.42000000000	0.75927370934024	36.732698575952
304.03000000000	0.75475344995795	30.727325117169
304.64000000000	0.75014118299152	24.777473982859
305.25000000000	0.74554317778508	18.882771643684
305.86000000000	0.74105707626713	13.041730529356
306.47000000000	0.73677055459966	7.2519171857691
307.08000000000	0.73276073428468	1.5101199509599
307.69000000000	0.72909417918017	-4.1874940763532
308.30000000000	0.72582730714850	-9.8452393030227
308.91000000000	0.72300705726149	-15.467792288898
309.52000000000	0.72067167785230	-21.060093158346
310.13000000000	0.71885153043010	-26.627266147310
310.74000000000	0.71756983439507	-32.174556396386
311.35000000000	0.71684330424243	-37.707279494213
311.96000000000	0.71668265278792	-43.230780175445
312.57000000000	0.71709295043674	-48.750396819515
313.18000000000	0.71807384209915	-54.271428828186
313.79000000000	0.71961963100301	-59.799104458932
314.40000000000	0.72171924356869	-65.338547172573
315.01000000000	0.72435609290700	-70.894738970285
315.62000000000	0.72750786146576	-76.472479533852
316.23000000000	0.73114622676241	-82.076340257736
316.84000000000	0.73523655861882	-87.710612506113
317.45000000000	0.73973762217780	-93.379249689587
318.06000000000	0.74460132818941	-99.085803088106
318.67000000000	0.74977258014666	-104.83335180091
319.28000000000	0.75518927586415	-110.62442782308
319.89000000000	0.76078252752688	-116.46093805273
320.50000000000	0.76647716706147	-122.34408601108
321.11000000000	0.77219260050327	-128.27429715269
321.72000000000	0.77784380829032	-134.25115334689
322.33000000000	0.78334349367943	-140.27334020315
322.94000000000	0.78860432253863	-146.33861602430
323.55000000000	0.79354080435725	-152.44381018374
324.16000000000	0.79807235653443	-158.58485260454
324.77000000000	0.80212622483806	-164.75684122240
325.38000000000	0.80564034667732	-170.95414812613
325.99000000000	0.80856592870413	-177.17056180966
326.60000000000	0.81086971837323	176.60053119305
327.21000000000	0.81253530710470	170.36595080232
327.82000000000	0.81356378107255	164.13250597564
328.43000000000	0.81397363901793	157.90678756038
329.04000000000	0.81379966328031	151.69495907968
329.65000000000	0.81309104399574	145.50257647224
330.26000000000	0.81190898876207	139.33444246690
330.87000000000	0.81032390625238	133.19449746530
331.48000000000	0.80841240805187	127.08575128560
332.09000000000	0.80625432939182	121.01025516844
332.70000000000	0.80392993726741	114.96911078741
333.31000000000	0.80151745049857	108.96251111452
333.92000000000	0.79909094870983	102.98980692784
334.53000000000	0.79671870272566	97.049592449608
335.14000000000	0.79446192209680	91.139803913914
335.75000000000	0.79237388865996	85.257825592031
336.36000000000	0.79049942846252	79.400598759703
336.97000000000	0.78887466693277	73.564730111877
337.58000000000	0.78752701195699	67.746597097373
338.19000000000	0.78647531442190	61.942448483245
338.80000000000	0.78573016382560	56.148499129664
339.41000000000	0.78529428613475	50.361018452984
340.02000000000	0.78516302096433	44.576412387578
340.63000000000	0.78532486456478	38.791298845312
341.24000000000	0.78576207350723	33.002576736660
341.85000000000	0.78645133106476	27.207488579284
342.46000000000	0.78736448392512	21.403676594423
343.07000000000	0.78846936093109	15.589231990390
343.68000000000	0.78973068793923	9.7627368629348
344.29000000000	0.79111111351610	3.9232978063710
344.90000000000	0.79257235890873	-1.9294300769100
345.51000000000	0.79407650229055	-7.7952305680711
346.12000000000	0.79558740126410	-13.673327508458
346.73000000000	0.79707224823408	-19.562402842290
347.34000000000	0.79850323926903	-25.460635416527
347.95000000000	0.79985931648635	-31.365765304917
348.56000000000	0.80112791416277	-37.275189217512
349.17000000000	0.80230659673856	-43.186092942484
349.78000000000	0.80340442066432	-49.095626143968
350.39000000000	0.80444278325325	-55.001122265294
351.00000000000	0.80545544993624	-60.900360527745
351.61000000000	0.80648739964307	-66.791856872253
352.22000000000	0.80759213703814	-72.675155786114
352.83000000000	0.80882724486936	-78.551077015896
353.44000000000	0.81024824020255	-84.421855405100
354.05000000000	0.81190126214351	-90.291107529895
354.66000000000	0.81381567132819	-96.163575807642
355.27000000000	0.81599808291516	-102.04464491452
355.88000000000	0.81842941935239	-107.93968986213
356.49000000000	0.82106606734218	-113.85337769803
357.10000000000	0.82384520955044	-119.78907558110
357.71000000000	0.82669322822185	-125.74849672994
358.32000000000	0.82953524126517	-131.73164728331
358.93000000000	0.83230368335246	-137.73705090459
359.54000000000	0.83494438549719	-143.76216048114
360.15000000000	0.83741951848950	-149.80383990907
360.76000000000	0.83970763659856	-155.85881309328
361.37000000000	0.84180160829834	-161.92401492519
361.98000000000	0.84370538747566	-167.99682008327
362.59000000000	0.84543045950946	-174.07515669743
363.20000000000	0.84699254277037	179.84247104531
363.81000000000	0.84840886108158	173.75702233205
364.42000000000	0.84969609375421	167.66899480576
365.03000000000	0.85086897556075	161.57851489390
365.64000000000	0.85193944993531	155.48542946129
366.25000000000	0.85291625529883	149.38939039659
366.86000000000	0.85380482789032	143.28992786303
367.47000000000	0.85460742093417	137.18651071739
368.08000000000	0.85532336069149	131.07859429283
368.69000000000	0.85594938003875	124.96565663286
369.30000000000	0.85647998695922	118.84722460738
369.91000000000	0.85690783738243	112.72289137587
370.52000000000	0.85722408955036	106.59232661583
371.13000000000	0.85741872268012	100.45528093943
371.74000000000	0.85748080836338	94.311585948316
372.35000000000	0.85739872916404	88.161151314521
372.96000000000	0.85716034385576	82.003960089026
373.57000000000	0.85675310165022	75.840063200282
374.18000000000	0.85616410889126	69.669573899739
374.79000000000	0.85538015191981	63.492662772307
375.40000000000	0.85438767976754	57.309553844910
376.01000000000	0.85317275018714	51.120522278715
376.62000000000	0.85172094224647	44.925894115948
377.23000000000	0.85001723830329	38.726048579018
377.84000000000	0.84804587776346	32.521423502689
378.45000000000	0.84579018488002	26.312524635582
379.06000000000	0.84323237339478	20.099939789764
379.67000000000	0.84035333263504	13.884359156372
380.28000000000	0.83713240349983	7.6666035425742
380.89000000000	0.83354715951662	1.4476628078563
381.50000000000	0.82957321889538	-4.7712526490983
382.11000000000	0.82518412943170	-10.988643946207
382.72000000000	0.82035139036720	-17.202635487978
383.33000000000	0.81504470465437	-23.410862515682
383.94000000000	0.80923259092510	-29.610330992454
384.55000000000	0.80288352307996	-35.797247919440
385.16000000000	0.79596779818577	-41.966823665222
385.77000000000	0.78846035141449	-48.113054967716
386.38000000000	0.78034474346260	-54.228509398016
386.99000000000	0.77161853422948	-60.304147365612
387.60000000000	0.76230013150836	-66.329232510034
388.21000000000	0.75243685334977	-72.291398666369
388.82000000000	0.74211343576217	-78.176962765628
389.43000000000	0.73145967194137	-83.971581634530
390.04000000000	0.72065534216212	-89.661322672609
390.65000000000	0.70993032567169	-95.234151252757
391.26000000000	0.69955713321750	-100.68178033919
391.87000000000	0.68983587534370	-106.00148407695
392.48000000000	0.68107158132775	-111.19761459295
393.09000000000	0.67354689115234	-116.28234044102
393.70000000000	0.66749510217760	-121.27527423119
394.31000000000	0.66307895679922	-126.20192825933
394.92000000000	0.66037941328821	-131.09126576869
395.53000000000	0.65939600762819	-135.97287813647
396.14000000000	0.66005739561175	-140.87439150145
396.75000000000	0.66223844765525	-145.81956958924
397.36000000000	0.66577952350547	-150.82731703936
397.97000000000	0.67050419071002	-155.91152556028
398.58000000000	0.67623306023665	-161.08153599123
399.19000000000	0.68279290695767	-166.34293701337
399.80000000000	0.69002137186526	-171.69845673711
400.41000000000	0.69776816776040	-177.14877949355
401.02000000000	0.70589390773603	177.30680143935
401.63000000000	0.71426760543389	171.66992374730
402.24000000000	0.72276370601130	165.94287886291
402.85000000000	0.73125929566370	160.12848816788
403.46000000000	0.73963195337898	154.23009582691
404.07000000000	0.74775856291701	148.25164083939
404.68000000000	0.75551528692225	142.19777309366
405.29000000000	0.76277880159140	136.07398113584
405.90000000000	0.76942878267353	129.88670229370
406.51000000000	0.77535151081882	123.64338891046
407.12000000000	0.78044432507398	117.35250842528
407.73000000000	0.78462050816000	111.02346072213
408.34000000000	0.78781405849208	104.66640422846
408.95000000000	0.78998372303498	98.291992899198
409.56000000000	0.79111566568447	91.911038982949
410.17000000000	0.79122425438800	85.534129971691
410.78000000000	0.79035067527555	79.171240110643
411.39000000000	0.78855940532920	72.831384300989
412.00000000000	0.78593294679923	66.522361983318
412.61000000000	0.78256556859522	60.250628220623
413.22000000000	0.77855701954476	54.021308367631
413.83000000000	0.77400719407316	47.838344443933
414.44000000000	0.76901250592729	41.704732388965
415.05000000000	0.76366429814421	35.622788810175
415.66000000000	0.75804910537300	29.594381503187
416.27000000000	0.75225015080810	23.621072548065
416.88000000000	0.74634924532068	17.704151428533
417.49000000000	0.74042831464474	11.844567958692
418.10000000000	0.73457005575117	6.0427996167869
418.71000000000	0.72885758531733	0.29869830000938
419.32000000000	0.72337325491709	-5.3886427014825
419.93000000000	0.71819698499147	-11.020974521435
420.54000000000	0.71340450003319	-16.600920904060
421.15000000000	0.70906577084600	-22.131952211888
421.76000000000	0.70524384511223	-27.618317246831
422.37000000000	0.70199412459560	-33.064948018175
422.98000000000	0.69936405453395	-38.477351746518
423.59000000000	0.69739313622456	-43.861501356352
424.20000000000	0.69611315256315	-49.223731975826
424.81000000000	0.69554849815994	-54.570647479803
425.42000000000	0.69571652037291	-59.909038327263
426.03000000000	0.69662779736869	-65.245809953126
426.64000000000	0.69828629932217	-70.587919684301
427.25000000000	0.70068939680468	-75.942319395655
427.86000000000	0.70382769576809	-81.315900737708
428.47000000000	0.70768469188365	-86.715439621106
429.08000000000	0.71223624949760	-92.147536645702
429.69000000000	0.71744992352934	-97.618550273018
430.30000000000	0.72328415768774	-103.13451976341
430.91000000000	0.72968741064725	-108.70107527862
431.52000000000	0.73659728407468	-114.32333316942
432.13000000000	0.74393975255017	-120.00577543949
432.74000000000	0.75162862405292	-125.75211382612
433.35000000000	0.75956538742567	-131.56514097134
433.96000000000	0.76763962436594	-137.44657381363
434.57000000000	0.77573016988070	-143.39689751540
435.18000000000	0.78370718706742	-149.41522166729
435.79000000000	0.79143527025106	-155.49916365110
436.40000000000	0.79877759929134	-161.64477616041
437.01000000000	0.80560103928293	-167.84653612786
437.62000000000	0.81178192684749	-174.09740995523
438.23000000000	0.81721213146939	179.61099537659
438.84000000000	0.82180486099958	173.28819376432
439.45000000000	0.82549962827050	166.94450219271
440.06000000000	0.82826583443075	160.59066173329
440.67000000000	0.83010455821239	154.23742344964
441.28000000000	0.83104834913794	147.89513000415
441.89000000000	0.83115906683329	141.57332409053
442.50000000000	0.83052403925435	135.28041082560
443.11000000000	0.82925098596875	129.02339387883
443.72000000000	0.82746224172597	122.80769597152
444.33000000000	0.82528881556432	116.63706516405
444.94000000000	0.82286474660067	110.51356052180
445.55000000000	0.82032209654242	104.43760521041
446.16000000000	0.81778678083871	98.408092106312
446.77000000000	0.81537531056617	92.422526397575
447.38000000000	0.81319241219877	86.477190850088
447.99000000000	0.81132941959581	80.567321771158
448.60000000000	0.80986329160248	74.687286601568
449.21000000000	0.80885609465622	68.830757028049
449.82000000000	0.80835479583285	62.990874210985
450.43000000000	0.80839123102960	57.160404995367
451.04000000000	0.80898213990817	51.331889755678
451.65000000000	0.81012918996144	45.497783824943
452.26000000000	0.81181894442704	39.650595311100
452.87000000000	0.81402276184495	33.783022545055
453.48000000000	0.81669664870335	27.888094448536
454.09000000000	0.81978112087020	21.959316740144
454.70000000000	0.82320116395655	15.990826071848
455.31000000000	0.82686641593129	9.9775528489563
455.92000000000	0.83067172416168	3.9153915898264
456.53000000000	0.83449824864142	-2.1986247690726
457.14000000000	0.83821528672491	-8.3661531272980
457.75000000000	0.84168297435481	-14.587380679890
458.36000000000	0.84475596718097	-20.860890211372
458.97000000000	0.84728811772241	-27.183565129023
459.58000000000	0.84913804344508	-33.550550053632
460.19000000000	0.85017533577889	-39.955281694933
460.80000000000	0.85028701222722	-46.389601187766
461.41000000000	0.84938369175403	-52.843952983122
462.02000000000	0.84740490936765	-59.307667247331
462.63000000000	0.84432300526277	-65.769313575184
463.24000000000	0.84014513783521	-72.217105162912
463.85000000000	0.83491316748304	-78.639326034129
464.46000000000	0.82870140671550	-85.024750793073
465.07000000000	0.82161248469545	-91.363027352180
465.68000000000	0.81377178235739	-97.644997934998
466.29000000000	0.80532102099528	-103.86294138075
466.90000000000	0.79641161709198	-110.01072886799
467.51000000000	0.78719835651407	-116.08389405108
468.12000000000	0.77783381715494	-122.07962597659
468.73000000000	0.76846381400209	-127.99669822928
469.34000000000	0.75922398589278	-133.83535030681
469.95000000000	0.75023751170586	-139.59713747980
470.56000000000	0.74161384748750	-145.28476392911
471.17000000000	0.73344837488805	-150.90189598770
471.78000000000	0.72582259715791	-156.45302624202
472.39000000000	0.71880475694014	-161.94332292399
473.00000000000	0.71245102276189	-167.37845270082
473.61000000000	0.70680663153721	-172.76447633109
474.22000000000	0.70190712319989	-178.10774357287
474.83000000000	0.69777953669869	176.58519540720
475.44000000000	0.69444350803162	171.30766372400
476.05000000000	0.69191223132033	166.05291856871
476.66000000000	0.69019325962469	160.81420128791
477.27000000000	0.68928913399900	155.58477893399
477.88000000000	0.68919783847050	150.35797937034
478.49000000000	0.68991308703617	145.12722188665
479.10000000000	0.69142445836549	139.88604535996
479.71000000000	0.69371740297796	134.62813681572
480.32000000000	0.69677314073321	129.34736514078
480.93000000000	0.70056841610632	124.03782524086
481.54000000000	0.70507502322785	118.69389072531
482.15000000000	0.71025911628644	113.31026207218
482.76000000000	0.71608054119813	107.88200507911
483.37000000000	0.72249236901919	102.40459556733
483.98000000000	0.72944055920714	96.873983258689
484.59000000000	0.73686366824087	91.286669654248
485.20000000000	0.74469270993393	85.639787922001
485.81000000000	0.75285108529144	79.931187362800
486.42000000000	0.76125492422111	74.159513796791
487.03000000000	0.76981396361943	68.324272901379
487.64000000000	0.77843268350568	62.425890013619
488.25000000000	0.78701198328000	56.465749390557
488.86000000000	0.79545132445150	50.446209317520
489.47000000000	0.80365128616833	44.370587484377
490.08000000000	0.81151643047400	38.243112235496
490.69000000000	0.81895832568386	32.068837221824
491.30000000000	0.82589853634113	25.853519536207
491.91000000000	0.83227136480938	19.603464369054
492.52000000000	0.83802612910486	13.325342244761
493.13000000000	0.84312878719593	7.0259875909615
493.74000000000	0.84756276832896	0.71218936213310
494.35000000000	0.85132894089344	-5.6095146131356
494.96000000000	0.85444472395884	-11.933028104269
495.57000000000	0.85694242367123	-18.252861688655
496.18000000000	0.85886693868370	-24.564265106184
496.79000000000	0.86027302583693	-30.863321635647
497.40000000000	0.86122232101190	-37.147002092970
498.01000000000	0.86178030806110	-43.413179873937
498.62000000000	0.86201341231722	-49.660610101337
499.23000000000	0.86198635084043	-55.888877565626
499.84000000000	0.86175983098309	-62.098319497441
500.45000000000	0.86138865082274	-68.289929992684
501.06000000000	0.86092022587624	-74.465253938662
501.67000000000	0.86039356470852	-80.626280894634
502.28000000000	0.85983881540326	-86.775356294116
502.89000000000	0.85927805734596	-92.915138283933
503.50000000000	0.85873033922589	-99.048561091267
504.11000000000	0.85822495874645	-105.17794171057
504.72000000000	0.85777180256638	-111.30205976506
505.33000000000	0.85729265264933	-117.42155923956
505.94000000000	0.85675784927179	-123.54162022209
506.55000000000	0.85617304581118	-129.66424569161
507.16000000000	0.85552594786474	-135.78979692487
507.77000000000	0.85479491204350	-141.91828423735
508.38000000000	0.85395619384564	-148.04944215858
508.99000000000	0.85298665852973	-154.18269249330
509.60000000000	0.85186505235684	-160.31714040057
510.21000000000	0.85057281530056	-166.45159221806
510.82000000000	0.84909472225840	-172.58458242655
511.43000000000	0.84741946107428	-178.71440537356
512.04000000000	0.84554018484002	175.16084764501
512.65000000000	0.84345502591317	169.04324356032
513.26000000000	0.84116752303935	162.93495314666
513.87000000000	0.83868689729811	156.83818716800
514.48000000000	0.83602811903797	150.75512533754
515.09000000000	0.83321173119702	144.68784204280
515.70000000000	0.83026342517184	138.63823353243
516.31000000000	0.82721339459534	132.60795107203
516.92000000000	0.82409551379376	126.59834370932
517.53000000000	0.82094639887802	120.61041309360
518.14000000000	0.81780441113469	114.64478157942
518.75000000000	0.81470865716628	108.70167380462
519.36000000000	0.81169803101438	102.78091114352
519.97000000000	0.80881033267123	96.881917891352
520.58000000000	0.80608148651688	91.003737694690
521.19000000000	0.80354487321886	85.145058562389
521.80000000000	0.80123077999669	79.304244738263
522.41000000000	0.79916596716516	73.479373763323
523.02000000000	0.79737334364981	67.668277177664
523.63000000000	0.79587174070536	61.868583485185
524.24000000000	0.79467577122000	56.077762204351
524.85000000000	0.79379576151417	50.293168033539
525.46000000000	0.79323774313606	44.512084353308
526.07000000000	0.79300349349300	38.731765458331
526.68000000000	0.79309061592715	32.949477052962
527.29000000000	0.79349265176886	27.162534655061
527.90000000000	0.79419921875551	21.368339636163
528.51000000000	0.79519617181455	15.564412688828
529.12000000000	0.79646578346207	9.7484245630601
529.73000000000	0.79798694191184	3.9182239641410
530.34000000000	0.79973536544356	-1.9281374342316
530.95000000000	0.80168383174683	-7.7923828235563
531.56000000000	0.80380242104106	-13.675990787004
532.17000000000	0.80605877208495	-19.580178212691
532.78000000000	0.80841835116541	-25.505885103383
533.39000000000	0.81084473632135	-31.453760594144
534.00000000000	0.81329992297524	-37.424149315807
534.61000000000	0.81574466326568	-43.417077158794
