#
#"Frequency / GHz"	"S1,1 [Mag]"	"S1,1 [Pha in deg.]"	"Ref.Imp. [Mag]"	"Ref.Imp. [Pha in deg.]"
#---------------------------------------------------------------------------------------------
290.00000000000	0.48103892753654	-92.896277666471	376.73031346177	0.00000000000000
290.61000000000	0.46998571592264	-98.435562664126	376.73031346177	0.00000000000000
291.22000000000	0.45638217591436	-103.89059115485	376.73031346177	0.00000000000000
291.83000000000	0.44023092657155	-109.23901070349	376.73031346177	0.00000000000000
292.44000000000	0.42156506283612	-114.44935675272	376.73031346177	0.00000000000000
293.05000000000	0.40045973321902	-119.47774674505	376.73031346177	0.00000000000000
293.66000000000	0.37704646740424	-124.26277689314	376.73031346177	0.00000000000000
294.27000000000	0.35153137569024	-128.71866766769	376.73031346177	0.00000000000000
294.88000000000	0.32422032490076	-132.72417574153	376.73031346177	0.00000000000000
295.49000000000	0.29555562967142	-136.10735069414	376.73031346177	0.00000000000000
296.10000000000	0.26616828416530	-138.62363153441	376.73031346177	0.00000000000000
296.71000000000	0.23695828400925	-139.92883223424	376.73031346177	0.00000000000000
297.32000000000	0.20921395857517	-139.55992736660	376.73031346177	0.00000000000000
297.93000000000	0.18476099827262	-136.97380783677	376.73031346177	0.00000000000000
298.54000000000	0.16603325764434	-131.76970399469	376.73031346177	0.00000000000000
299.15000000000	0.15572894430118	-124.21888109743	376.73031346177	0.00000000000000
299.76000000000	0.15568834910541	-115.73799424188	376.73031346177	0.00000000000000
300.37000000000	0.16564321645781	-108.32746620043	376.73031346177	0.00000000000000
300.98000000000	0.18338088155139	-103.26425773047	376.73031346177	0.00000000000000
301.59000000000	0.20612159527545	-100.70272418523	376.73031346177	0.00000000000000
302.20000000000	0.23153252029839	-100.20557726286	376.73031346177	0.00000000000000
302.81000000000	0.25795756273420	-101.23774739214	376.73031346177	0.00000000000000
303.42000000000	0.28429398773089	-103.35610465747	376.73031346177	0.00000000000000
304.03000000000	0.30982422838985	-106.23553234304	376.73031346177	0.00000000000000
304.64000000000	0.33408872304304	-109.64684267458	376.73031346177	0.00000000000000
305.25000000000	0.35680153419642	-113.42989529881	376.73031346177	0.00000000000000
305.86000000000	0.37779537039914	-117.47245433130	376.73031346177	0.00000000000000
306.47000000000	0.39698497867662	-121.69534306097	376.73031346177	0.00000000000000
307.08000000000	0.41434194651655	-126.04236809056	376.73031346177	0.00000000000000
307.69000000000	0.42987680418474	-130.47350985559	376.73031346177	0.00000000000000
308.30000000000	0.44362599829625	-134.96028272089	376.73031346177	0.00000000000000
308.91000000000	0.45564225080272	-139.48253005764	376.73031346177	0.00000000000000
309.52000000000	0.46598734862626	-144.02617442177	376.73031346177	0.00000000000000
310.13000000000	0.47472671908324	-148.58160942477	376.73031346177	0.00000000000000
310.74000000000	0.48192534055719	-153.14252643065	376.73031346177	0.00000000000000
311.35000000000	0.48764467326299	-157.70503731014	376.73031346177	0.00000000000000
311.96000000000	0.49194039673189	-162.26699821064	376.73031346177	0.00000000000000
312.57000000000	0.49486081768919	-166.82746794835	376.73031346177	0.00000000000000
313.18000000000	0.49644586984226	-171.38625419579	376.73031346177	0.00000000000000
313.79000000000	0.49672666992231	-175.94351452482	376.73031346177	0.00000000000000
314.40000000000	0.49572562322101	179.50061060633	376.73031346177	0.00000000000000
315.01000000000	0.49345708674344	174.94634861313	376.73031346177	0.00000000000000
315.62000000000	0.48992859999448	170.39463995645	376.73031346177	0.00000000000000
316.23000000000	0.48514268499237	165.84748520843	376.73031346177	0.00000000000000
316.84000000000	0.47909920218123	161.30829990395	376.73031346177	0.00000000000000
317.45000000000	0.47179823170550	156.78228277326	376.73031346177	0.00000000000000
318.06000000000	0.46324343374130	152.27680353036	376.73031346177	0.00000000000000
318.67000000000	0.45344582297689	147.80181764484	376.73031346177	0.00000000000000
319.28000000000	0.44242790532443	143.37031505700	376.73031346177	0.00000000000000
319.89000000000	0.43022814714125	138.99880592499	376.73031346177	0.00000000000000
320.50000000000	0.41690556131397	134.70785540331	376.73031346177	0.00000000000000
321.11000000000	0.40254435259011	130.52266355109	376.73031346177	0.00000000000000
321.72000000000	0.38725929735697	126.47359159683	376.73031346177	0.00000000000000
322.33000000000	0.37120014617442	122.59672010344	376.73031346177	0.00000000000000
322.94000000000	0.35455637046913	118.93418133443	376.73031346177	0.00000000000000
323.55000000000	0.33756160331374	115.53404892481	376.73031346177	0.00000000000000
324.16000000000	0.32049702043922	112.44954960697	376.73031346177	0.00000000000000
324.77000000000	0.30369328071501	109.73685027982	376.73031346177	0.00000000000000
325.38000000000	0.28752945875995	107.45070624686	376.73031346177	0.00000000000000
325.99000000000	0.27242679359891	105.63704383144	376.73031346177	0.00000000000000
326.60000000000	0.25883412804691	104.32188006913	376.73031346177	0.00000000000000
327.21000000000	0.24720158654230	103.49717851155	376.73031346177	0.00000000000000
327.82000000000	0.23794055010918	103.10663941840	376.73031346177	0.00000000000000
328.43000000000	0.23137243843891	103.03738375431	376.73031346177	0.00000000000000
329.04000000000	0.22767777476190	103.12462946197	376.73031346177	0.00000000000000
329.65000000000	0.22685970931201	103.17273117363	376.73031346177	0.00000000000000
330.26000000000	0.22873950269921	102.98755393121	376.73031346177	0.00000000000000
330.87000000000	0.23298649195189	102.40796120350	376.73031346177	0.00000000000000
331.48000000000	0.23917168601712	101.32480996129	376.73031346177	0.00000000000000
332.09000000000	0.24682662898184	99.683662280689	376.73031346177	0.00000000000000
332.70000000000	0.25549189760038	97.475418900170	376.73031346177	0.00000000000000
333.31000000000	0.26474876009126	94.722037236483	376.73031346177	0.00000000000000
333.92000000000	0.27423483112156	91.462915341798	376.73031346177	0.00000000000000
334.53000000000	0.28364805247266	87.744539700463	376.73031346177	0.00000000000000
335.14000000000	0.29274372321776	83.613754769815	376.73031346177	0.00000000000000
335.75000000000	0.30132817917306	79.113966211517	376.73031346177	0.00000000000000
336.36000000000	0.30925140151162	74.283361917382	376.73031346177	0.00000000000000
336.97000000000	0.31639980595047	69.154373185354	376.73031346177	0.00000000000000
337.58000000000	0.32268980256363	63.753826190670	376.73031346177	0.00000000000000
338.19000000000	0.32806234090403	58.103434383796	376.73031346177	0.00000000000000
338.80000000000	0.33247846505818	52.220425848900	376.73031346177	0.00000000000000
339.41000000000	0.33591583144532	46.118189068931	376.73031346177	0.00000000000000
340.02000000000	0.33836628212308	39.806853720123	376.73031346177	0.00000000000000
340.63000000000	0.33983901637540	33.294073029121	376.73031346177	0.00000000000000
341.24000000000	0.34032959439649	26.586852338672	376.73031346177	0.00000000000000
341.85000000000	0.33987861510730	19.685842795816	376.73031346177	0.00000000000000
342.46000000000	0.33851621617519	12.595263048863	376.73031346177	0.00000000000000
343.07000000000	0.33628418013953	5.3164835973001	376.73031346177	0.00000000000000
343.68000000000	0.33323457194769	-2.1497085902528	376.73031346177	0.00000000000000
344.29000000000	0.32942918597836	-9.8029350854396	376.73031346177	0.00000000000000
344.90000000000	0.32493960508935	-17.643027919543	376.73031346177	0.00000000000000
345.51000000000	0.31984714272324	-25.669847626527	376.73031346177	0.00000000000000
346.12000000000	0.31424251106101	-33.883116409694	376.73031346177	0.00000000000000
346.73000000000	0.30822511847951	-42.282256749760	376.73031346177	0.00000000000000
347.34000000000	0.30190193652696	-50.866222617637	376.73031346177	0.00000000000000
347.95000000000	0.29538591750522	-59.633309452810	376.73031346177	0.00000000000000
348.56000000000	0.28879398786804	-68.580930534594	376.73031346177	0.00000000000000
349.17000000000	0.28224468516567	-77.705352130644	376.73031346177	0.00000000000000
349.78000000000	0.27585554188165	-87.001388410618	376.73031346177	0.00000000000000
350.39000000000	0.26974034424411	-96.462069374739	376.73031346177	0.00000000000000
351.00000000000	0.26400640634915	-106.07830964811	376.73031346177	0.00000000000000
351.61000000000	0.25875200059570	-115.83862027993	376.73031346177	0.00000000000000
352.22000000000	0.25406407698732	-125.72891585295	376.73031346177	0.00000000000000
352.83000000000	0.25001638889262	-135.73247101244	376.73031346177	0.00000000000000
353.44000000000	0.24666812265745	-145.83007060123	376.73031346177	0.00000000000000
354.05000000000	0.24406310254942	-156.00037505387	376.73031346177	0.00000000000000
354.66000000000	0.24222960947864	-166.22049040574	376.73031346177	0.00000000000000
355.27000000000	0.24118081129811	-176.46669687991	376.73031346177	0.00000000000000
355.88000000000	0.24091575652213	173.28473957272	376.73031346177	0.00000000000000
356.49000000000	0.24142083768381	163.05676399547	376.73031346177	0.00000000000000
357.10000000000	0.24267159313024	152.87082583877	376.73031346177	0.00000000000000
357.71000000000	0.24463469421534	142.74633747574	376.73031346177	0.00000000000000
358.32000000000	0.24726996278706	132.70033508970	376.73031346177	0.00000000000000
358.93000000000	0.25053228108005	122.74734548245	376.73031346177	0.00000000000000
359.54000000000	0.25437328783666	112.89943390293	376.73031346177	0.00000000000000
360.15000000000	0.25874279349406	103.16638968166	376.73031346177	0.00000000000000
360.76000000000	0.26358988630782	93.555999455088	376.73031346177	0.00000000000000
361.37000000000	0.26886373473940	84.074360298019	376.73031346177	0.00000000000000
361.98000000000	0.27451411620313	74.726193841104	376.73031346177	0.00000000000000
362.59000000000	0.28049171757754	65.515133954614	376.73031346177	0.00000000000000
363.20000000000	0.28674825965095	56.443972060397	376.73031346177	0.00000000000000
363.81000000000	0.29323649770095	47.514853863032	376.73031346177	0.00000000000000
364.42000000000	0.29991014576932	38.729428507354	376.73031346177	0.00000000000000
365.03000000000	0.30672376479723	30.088955817322	376.73031346177	0.00000000000000
365.64000000000	0.31363264564896	21.594379618790	376.73031346177	0.00000000000000
366.25000000000	0.32059271142161	13.246376216320	376.73031346177	0.00000000000000
366.86000000000	0.32756045562127	5.0453866414171	376.73031346177	0.00000000000000
367.47000000000	0.33449291616133	-3.0083612985027	376.73031346177	0.00000000000000
368.08000000000	0.34134770099363	-10.914833331223	376.73031346177	0.00000000000000
368.69000000000	0.34808305899503	-18.674168000851	376.73031346177	0.00000000000000
369.30000000000	0.35465799683376	-26.286651515656	376.73031346177	0.00000000000000
369.91000000000	0.36103244096382	-33.752686199882	376.73031346177	0.00000000000000
370.52000000000	0.36716713437914	-41.072755303308	376.73031346177	0.00000000000000
371.13000000000	0.37302463207109	-48.247381717894	376.73031346177	0.00000000000000
371.74000000000	0.37856928320232	-55.277033953557	376.73031346177	0.00000000000000
372.35000000000	0.38376728325876	-62.162117450537	376.73031346177	0.00000000000000
372.96000000000	0.38858490447150	-68.902900478569	376.73031346177	0.00000000000000
373.57000000000	0.39298707861558	-75.499494777159	376.73031346177	0.00000000000000
374.18000000000	0.39695831492891	-81.951631399924	376.73031346177	0.00000000000000
374.79000000000	0.40047847284659	-88.258753191197	376.73031346177	0.00000000000000
375.40000000000	0.40353279022237	-94.419925951513	376.73031346177	0.00000000000000
376.01000000000	0.40611268247817	-100.43381034512	376.73031346177	0.00000000000000
376.62000000000	0.40821686883303	-106.29865852224	376.73031346177	0.00000000000000
377.23000000000	0.40985250518029	-112.01234486932	376.73031346177	0.00000000000000
377.84000000000	0.41103632412608	-117.57244076019	376.73031346177	0.00000000000000
378.45000000000	0.41179569817916	-122.97634246697	376.73031346177	0.00000000000000
379.06000000000	0.41216950444034	-128.22146113060	376.73031346177	0.00000000000000
379.67000000000	0.41220882563408	-133.30548590861	376.73031346177	0.00000000000000
380.28000000000	0.41197695226175	-138.22670456942	376.73031346177	0.00000000000000
380.89000000000	0.41154891732142	-142.98440051250	376.73031346177	0.00000000000000
381.50000000000	0.41101048003207	-147.57928964654	376.73031346177	0.00000000000000
382.11000000000	0.41045582248434	-152.01397740070	376.73031346177	0.00000000000000
382.72000000000	0.40998465400034	-156.29339221503	376.73031346177	0.00000000000000
383.33000000000	0.40969835714710	-160.42514162678	376.73031346177	0.00000000000000
383.94000000000	0.40969540321264	-164.41973023985	376.73031346177	0.00000000000000
384.55000000000	0.41006630130213	-168.29058111694	376.73031346177	0.00000000000000
385.16000000000	0.41088845744701	-172.05381668924	376.73031346177	0.00000000000000
385.77000000000	0.41222139866124	-175.72778284688	376.73031346177	0.00000000000000
386.38000000000	0.41410283664767	-179.33233722002	376.73031346177	0.00000000000000
386.99000000000	0.41654599050400	177.11203761650	376.73031346177	0.00000000000000
387.60000000000	0.41953845758002	173.58520306408	376.73031346177	0.00000000000000
388.21000000000	0.42304273683811	170.06830695176	376.73031346177	0.00000000000000
388.82000000000	0.42699830588016	166.54459654954	376.73031346177	0.00000000000000
389.43000000000	0.43132497283883	163.00002441260	376.73031346177	0.00000000000000
390.04000000000	0.43592710174160	159.42360684690	376.73031346177	0.00000000000000
390.65000000000	0.44069826188166	155.80753457500	376.73031346177	0.00000000000000
391.26000000000	0.44552587570176	152.14706820841	376.73031346177	0.00000000000000
391.87000000000	0.45029551559504	148.44027199282	376.73031346177	0.00000000000000
392.48000000000	0.45489412072630	144.68764691331	376.73031346177	0.00000000000000
393.09000000000	0.45921447627368	140.89172093130	376.73031346177	0.00000000000000
393.70000000000	0.46315599272204	137.05664384335	376.73031346177	0.00000000000000
394.31000000000	0.46662675604540	133.18782101081	376.73031346177	0.00000000000000
394.92000000000	0.46954450166583	129.29160712258	376.73031346177	0.00000000000000
395.53000000000	0.47183713075437	125.37507005420	376.73031346177	0.00000000000000
396.14000000000	0.47344290955748	121.44582649945	376.73031346177	0.00000000000000
396.75000000000	0.47431048913883	117.51194529754	376.73031346177	0.00000000000000
397.36000000000	0.47439887195902	113.58191072897	376.73031346177	0.00000000000000
397.97000000000	0.47367743782288	109.66463580751	376.73031346177	0.00000000000000
398.58000000000	0.47212612919841	105.76951412910	376.73031346177	0.00000000000000
399.19000000000	0.46973588843223	101.90649789818	376.73031346177	0.00000000000000
399.80000000000	0.46650943707733	98.086189899561	376.73031346177	0.00000000000000
400.41000000000	0.46246247643936	94.319939933551	376.73031346177	0.00000000000000
401.02000000000	0.45762532415512	90.619941775747	376.73031346177	0.00000000000000
401.63000000000	0.45204482929267	86.999326642984	376.73031346177	0.00000000000000
402.24000000000	0.44578619783388	83.472223253227	376.73031346177	0.00000000000000
402.85000000000	0.43893441543782	80.053701194163	376.73031346177	0.00000000000000
403.46000000000	0.43159539251754	76.759491415281	376.73031346177	0.00000000000000
404.07000000000	0.42389716423794	73.605432732290	376.73031346177	0.00000000000000
404.68000000000	0.41599095993158	70.606654134175	376.73031346177	0.00000000000000
405.29000000000	0.40805132827197	67.776492256653	376.73031346177	0.00000000000000
405.90000000000	0.40027441842831	65.125117041721	376.73031346177	0.00000000000000
406.51000000000	0.39287377006827	62.657874590304	376.73031346177	0.00000000000000
407.12000000000	0.38607321995400	60.373456417416	376.73031346177	0.00000000000000
407.73000000000	0.38009680762166	58.262134592461	376.73031346177	0.00000000000000
408.34000000000	0.37515599587065	56.304425341498	376.73031346177	0.00000000000000
408.95000000000	0.37143514427834	54.470610115403	376.73031346177	0.00000000000000
409.56000000000	0.36907686304487	52.721492306591	376.73031346177	0.00000000000000
410.17000000000	0.36816938541015	51.010559768065	376.73031346177	0.00000000000000
410.78000000000	0.36873815193922	49.287383675440	376.73031346177	0.00000000000000
411.39000000000	0.37074323610722	47.501723534268	376.73031346177	0.00000000000000
412.00000000000	0.37408314415165	45.607580993147	376.73031346177	0.00000000000000
412.61000000000	0.37860423732341	43.566461396519	376.73031346177	0.00000000000000
413.22000000000	0.38411399437036	41.349353511247	376.73031346177	0.00000000000000
413.83000000000	0.39039586870849	38.937303995337	376.73031346177	0.00000000000000
414.44000000000	0.39722364299312	36.320790280434	376.73031346177	0.00000000000000
415.05000000000	0.40437375474603	33.498282829568	376.73031346177	0.00000000000000
415.66000000000	0.41163478320592	30.474420182661	376.73031346177	0.00000000000000
416.27000000000	0.41881392343534	27.258144581452	376.73031346177	0.00000000000000
416.88000000000	0.42574071515654	23.861026162029	376.73031346177	0.00000000000000
417.49000000000	0.43226852763689	20.295888678696	376.73031346177	0.00000000000000
418.10000000000	0.43827437178924	16.575763696394	376.73031346177	0.00000000000000
418.71000000000	0.44365757609553	12.713147628382	376.73031346177	0.00000000000000
419.32000000000	0.44833777594214	8.7195109134542	376.73031346177	0.00000000000000
419.93000000000	0.45225256259667	4.6050020059253	376.73031346177	0.00000000000000
420.54000000000	0.45535503944970	0.37829264275886	376.73031346177	0.00000000000000
421.15000000000	0.45761144936978	-3.9534806837675	376.73031346177	0.00000000000000
421.76000000000	0.45899897127907	-8.3847144827684	376.73031346177	0.00000000000000
422.37000000000	0.45950373579901	-12.911301712240	376.73031346177	0.00000000000000
422.98000000000	0.45911907673637	-17.530579843549	376.73031346177	0.00000000000000
423.59000000000	0.45784401437661	-22.241276550542	376.73031346177	0.00000000000000
424.20000000000	0.45568195514806	-27.043461611884	376.73031346177	0.00000000000000
424.81000000000	0.45263958767712	-31.938510460888	376.73031346177	0.00000000000000
425.42000000000	0.44872595550719	-36.929082668211	376.73031346177	0.00000000000000
426.03000000000	0.44395169025009	-42.019117262717	376.73031346177	0.00000000000000
426.64000000000	0.43832839460531	-47.213845989920	376.73031346177	0.00000000000000
427.25000000000	0.43186817184326	-52.519825230433	376.73031346177	0.00000000000000
427.86000000000	0.42458330661799	-57.944987256200	376.73031346177	0.00000000000000
428.47000000000	0.41648611112976	-63.498711739158	376.73031346177	0.00000000000000
429.08000000000	0.40758896052073	-69.191918933571	376.73031346177	0.00000000000000
429.69000000000	0.39790455170238	-75.037186749615	376.73031346177	0.00000000000000
430.30000000000	0.38744643015012	-81.048895061104	376.73031346177	0.00000000000000
430.91000000000	0.37622983883721	-87.243402084486	376.73031346177	0.00000000000000
431.52000000000	0.36427295131667	-93.639259533771	376.73031346177	0.00000000000000
432.13000000000	0.35159855540198	-100.25747539904	376.73031346177	0.00000000000000
432.74000000000	0.33823625277229	-107.12183528409	376.73031346177	0.00000000000000
433.35000000000	0.32422523027662	-114.25929446658	376.73031346177	0.00000000000000
433.96000000000	0.30961763708763	-121.70045148398	376.73031346177	0.00000000000000
434.57000000000	0.29448256346095	-129.48010665779	376.73031346177	0.00000000000000
435.18000000000	0.27891055520359	-137.63788900047	376.73031346177	0.00000000000000
435.79000000000	0.26301850295910	-146.21889027178	376.73031346177	0.00000000000000
