#
#"Frequency / GHz"	"S1,1 [Mag]"	"S1,1 [Pha in deg.]"	"Ref.Imp. [Mag]"	"Ref.Imp. [Pha in deg.]"
#---------------------------------------------------------------------------------------------
290.00000000000	0.16659222622391	102.86258506936	376.73031346177	0.00000000000000
290.61000000000	0.14049357964298	98.279283456680	376.73031346177	0.00000000000000
291.22000000000	0.11339258919574	93.889278357403	376.73031346177	0.00000000000000
291.83000000000	0.085444372187948	89.943725037124	376.73031346177	0.00000000000000
292.44000000000	0.056851973050087	87.205423458500	376.73031346177	0.00000000000000
293.05000000000	0.028034777159377	89.598797047933	376.73031346177	0.00000000000000
293.66000000000	0.0076578801322762	179.15459571773	376.73031346177	0.00000000000000
294.27000000000	0.033235528194529	-128.37468272335	376.73031346177	0.00000000000000
294.88000000000	0.062713823941540	-127.76180122750	376.73031346177	0.00000000000000
295.49000000000	0.092232944881181	-130.97917258131	376.73031346177	0.00000000000000
296.10000000000	0.12142548671670	-135.25268563123	376.73031346177	0.00000000000000
296.71000000000	0.15006843039072	-139.96896320816	376.73031346177	0.00000000000000
297.32000000000	0.17797365161242	-144.91408962429	376.73031346177	0.00000000000000
297.93000000000	0.20497268500578	-149.99349489254	376.73031346177	0.00000000000000
298.54000000000	0.23091390112088	-155.15889845230	376.73031346177	0.00000000000000
299.15000000000	0.25566197517710	-160.38338898057	376.73031346177	0.00000000000000
299.76000000000	0.27909757416831	-165.65130349581	376.73031346177	0.00000000000000
300.37000000000	0.30111676647241	-170.95356314754	376.73031346177	0.00000000000000
300.98000000000	0.32163009176960	-176.28529757656	376.73031346177	0.00000000000000
301.59000000000	0.34056137696691	178.35547266476	376.73031346177	0.00000000000000
302.20000000000	0.35784643543591	172.96862379280	376.73031346177	0.00000000000000
302.81000000000	0.37343179535198	167.55243040818	376.73031346177	0.00000000000000
303.42000000000	0.38727358746993	162.10389929643	376.73031346177	0.00000000000000
304.03000000000	0.39933669276126	156.61899424771	376.73031346177	0.00000000000000
304.64000000000	0.40959421243518	151.09278116319	376.73031346177	0.00000000000000
305.25000000000	0.41802728249553	145.51950759612	376.73031346177	0.00000000000000
305.86000000000	0.42462521738435	139.89262321151	376.73031346177	0.00000000000000
306.47000000000	0.42938593738748	134.20474403276	376.73031346177	0.00000000000000
307.08000000000	0.43231661660688	128.44756196340	376.73031346177	0.00000000000000
307.69000000000	0.43343448538280	122.61170084914	376.73031346177	0.00000000000000
308.30000000000	0.43276773399632	116.68652057533	376.73031346177	0.00000000000000
308.91000000000	0.43035649174454	110.65987092554	376.73031346177	0.00000000000000
309.52000000000	0.42625389306903	104.51779697395	376.73031346177	0.00000000000000
310.13000000000	0.42052728451343	98.244197807430	376.73031346177	0.00000000000000
310.74000000000	0.41325966624251	91.820441027927	376.73031346177	0.00000000000000
311.35000000000	0.40455149323436	85.224938119036	376.73031346177	0.00000000000000
311.96000000000	0.39452297835085	78.432692723527	376.73031346177	0.00000000000000
312.57000000000	0.38331703681836	71.414848973483	376.73031346177	0.00000000000000
313.18000000000	0.37110298195611	64.138296100035	376.73031346177	0.00000000000000
313.79000000000	0.35808101238724	56.565437113989	376.73031346177	0.00000000000000
314.40000000000	0.34448739715981	48.654314364130	376.73031346177	0.00000000000000
315.01000000000	0.33060002465200	40.359413944619	376.73031346177	0.00000000000000
315.62000000000	0.31674356921050	31.633645128229	376.73031346177	0.00000000000000
316.23000000000	0.30329287039987	22.432177874138	376.73031346177	0.00000000000000
316.84000000000	0.29067217872570	12.718911062945	376.73031346177	0.00000000000000
317.45000000000	0.27934683899745	2.4760938501924	376.73031346177	0.00000000000000
318.06000000000	0.26980330581027	-8.2833401797113	376.73031346177	0.00000000000000
318.67000000000	0.26251426328647	-19.503114963143	376.73031346177	0.00000000000000
319.28000000000	0.25788948506039	-31.075514334911	376.73031346177	0.00000000000000
319.89000000000	0.25622019362255	-42.843970420957	376.73031346177	0.00000000000000
320.50000000000	0.25763209106423	-54.619925787210	376.73031346177	0.00000000000000
321.11000000000	0.26206390569496	-66.210863629184	376.73031346177	0.00000000000000
321.72000000000	0.26928022416459	-77.449728619221	376.73031346177	0.00000000000000
322.33000000000	0.27891339981521	-88.215068006559	376.73031346177	0.00000000000000
322.94000000000	0.29051897554370	-98.436947871719	376.73031346177	0.00000000000000
323.55000000000	0.30362827350789	-108.09092665719	376.73031346177	0.00000000000000
324.16000000000	0.31778825288592	-117.18602326281	376.73031346177	0.00000000000000
324.77000000000	0.33258629621707	-125.75206950491	376.73031346177	0.00000000000000
325.38000000000	0.34766232693384	-133.82942299426	376.73031346177	0.00000000000000
325.99000000000	0.36271219529652	-141.46185301553	376.73031346177	0.00000000000000
326.60000000000	0.37748589686220	-148.69222450816	376.73031346177	0.00000000000000
327.21000000000	0.39178317636821	-155.56022114211	376.73031346177	0.00000000000000
327.82000000000	0.40544810503012	-162.10138486393	376.73031346177	0.00000000000000
328.43000000000	0.41836351918522	-168.34692727734	376.73031346177	0.00000000000000
329.04000000000	0.43044576700471	-174.32395084409	376.73031346177	0.00000000000000
329.65000000000	0.44163995551858	179.94414086078	376.73031346177	0.00000000000000
330.26000000000	0.45191575230294	174.43716889910	376.73031346177	0.00000000000000
330.87000000000	0.46126372504653	169.13770601680	376.73031346177	0.00000000000000
331.48000000000	0.46969216728272	164.03063521049	376.73031346177	0.00000000000000
332.09000000000	0.47722434276885	159.10275068411	376.73031346177	0.00000000000000
332.70000000000	0.48389607544559	154.34240223024	376.73031346177	0.00000000000000
333.31000000000	0.48975361231477	149.73917977361	376.73031346177	0.00000000000000
333.92000000000	0.49485169097915	145.28363362209	376.73031346177	0.00000000000000
334.53000000000	0.49925175113262	140.96702642388	376.73031346177	0.00000000000000
335.14000000000	0.50302023951764	136.78111406309	376.73031346177	0.00000000000000
335.75000000000	0.50622697036173	132.71795421077	376.73031346177	0.00000000000000
336.36000000000	0.50894351750387	128.76974265077	376.73031346177	0.00000000000000
336.97000000000	0.51124162953330	124.92867859245	376.73031346177	0.00000000000000
337.58000000000	0.51319167426654	121.18686081038	376.73031346177	0.00000000000000
338.19000000000	0.51486113259386	117.53621651873	376.73031346177	0.00000000000000
338.80000000000	0.51631317289903	113.96846436436	376.73031346177	0.00000000000000
339.41000000000	0.51760534477561	110.47511184855	376.73031346177	0.00000000000000
340.02000000000	0.51878843380983	107.04748598455	376.73031346177	0.00000000000000
340.63000000000	0.51990551741416	103.67679425570	376.73031346177	0.00000000000000
341.24000000000	0.52099125528842	100.35421119763	376.73031346177	0.00000000000000
341.85000000000	0.52207143785154	97.070984440550	376.73031346177	0.00000000000000
342.46000000000	0.52316280322023	93.818553035383	376.73031346177	0.00000000000000
343.07000000000	0.52427311961188	90.588670502297	376.73031346177	0.00000000000000
343.68000000000	0.52540151708226	87.373525332837	376.73031346177	0.00000000000000
344.29000000000	0.52653904173776	84.165852591468	376.73031346177	0.00000000000000
344.90000000000	0.52766939803381	80.959031650882	376.73031346177	0.00000000000000
345.51000000000	0.52876984098800	77.747166749033	376.73031346177	0.00000000000000
346.12000000000	0.52981218002847	74.525148747810	376.73031346177	0.00000000000000
346.73000000000	0.53076385920124	71.288697998111	376.73031346177	0.00000000000000
347.34000000000	0.53158908365875	68.034389419736	376.73031346177	0.00000000000000
347.95000000000	0.53224996866005	64.759661699810	376.73031346177	0.00000000000000
348.56000000000	0.53270769364080	61.462812879619	376.73031346177	0.00000000000000
349.17000000000	0.53292364930961	58.142984572530	376.73031346177	0.00000000000000
349.78000000000	0.53286056947697	54.800136709264	376.73031346177	0.00000000000000
350.39000000000	0.53248364098563	51.435014136288	376.73031346177	0.00000000000000
351.00000000000	0.53176158453673	48.049105698742	376.73031346177	0.00000000000000
351.61000000000	0.53066769651648	44.644595715267	376.73031346177	0.00000000000000
352.22000000000	0.52918083748510	41.224307081182	376.73031346177	0.00000000000000
352.83000000000	0.52728634735046	37.791634687721	376.73031346177	0.00000000000000
353.44000000000	0.52497686111861	34.350467475316	376.73031346177	0.00000000000000
354.05000000000	0.52225299329501	30.905097296251	376.73031346177	0.00000000000000
354.66000000000	0.51912385434451	27.460112887527	376.73031346177	0.00000000000000
355.27000000000	0.51560735992977	24.020277686086	376.73031346177	0.00000000000000
355.88000000000	0.51173029368179	20.590390988088	376.73031346177	0.00000000000000
356.49000000000	0.50752808762655	17.175133085875	376.73031346177	0.00000000000000
357.10000000000	0.50304429152339	13.778896516837	376.73031346177	0.00000000000000
357.71000000000	0.49832971345730	10.405607401909	376.73031346177	0.00000000000000
358.32000000000	0.49344092897886	7.0585457936484	376.73031346177	0.00000000000000
358.93000000000	0.48843963172201	3.7401599658528	376.73031346177	0.00000000000000
359.54000000000	0.48339008620348	0.45190985977229	376.73031346177	0.00000000000000
360.15000000000	0.47835727326359	-2.8058704140297	376.73031346177	0.00000000000000
360.76000000000	0.47340479762366	-6.0340692059641	376.73031346177	0.00000000000000
361.37000000000	0.46859270348562	-9.2348413653136	376.73031346177	0.00000000000000
361.98000000000	0.46397536501413	-12.411589789033	376.73031346177	0.00000000000000
362.59000000000	0.45959957152894	-15.568877934290	376.73031346177	0.00000000000000
363.20000000000	0.45550292343733	-18.712272164029	376.73031346177	0.00000000000000
363.81000000000	0.45171263988058	-21.848119212782	376.73031346177	0.00000000000000
364.42000000000	0.44824485324970	-24.983270661606	376.73031346177	0.00000000000000
365.03000000000	0.44510443125611	-28.124772050335	376.73031346177	0.00000000000000
365.64000000000	0.44228532787440	-31.279538125589	376.73031346177	0.00000000000000
366.25000000000	0.43977142504062	-34.454037009137	376.73031346177	0.00000000000000
366.86000000000	0.43753779250930	-37.654004544828	376.73031346177	0.00000000000000
367.47000000000	0.43555226795195	-40.884206065850	376.73031346177	0.00000000000000
368.08000000000	0.43377724578886	-44.148257103157	376.73031346177	0.00000000000000
368.69000000000	0.43217156191625	-47.448508169121	376.73031346177	0.00000000000000
369.30000000000	0.43069237100253	-50.785992733543	376.73031346177	0.00000000000000
369.91000000000	0.42929693052550	-54.160432675501	376.73031346177	0.00000000000000
370.52000000000	0.42794422764596	-57.570292308563	376.73031346177	0.00000000000000
371.13000000000	0.42659640783367	-61.012870637532	376.73031346177	0.00000000000000
371.74000000000	0.42521998494182	-64.484421613126	376.73031346177	0.00000000000000
372.35000000000	0.42378682912948	-67.980293423637	376.73031346177	0.00000000000000
372.96000000000	0.42227494058805	-71.495079845559	376.73031346177	0.00000000000000
373.57000000000	0.42066902322693	-75.022778933271	376.73031346177	0.00000000000000
374.18000000000	0.41896087376181	-78.556956494792	376.73031346177	0.00000000000000
374.79000000000	0.41714959892586	-82.090913597968	376.73031346177	0.00000000000000
375.40000000000	0.41524166795985	-85.617858582149	376.73031346177	0.00000000000000
376.01000000000	0.41325080045533	-89.131084584093	376.73031346177	0.00000000000000
376.62000000000	0.41119768242569	-92.624153346585	376.73031346177	0.00000000000000
377.23000000000	0.40910949759524	-96.091085035684	376.73031346177	0.00000000000000
377.84000000000	0.40701925773758	-99.526551979594	376.73031346177	0.00000000000000
378.45000000000	0.40496491676922	-102.92607177324	376.73031346177	0.00000000000000
379.06000000000	0.40298825926898	-106.28619229704	376.73031346177	0.00000000000000
379.67000000000	0.40113356574302	-109.60465824673	376.73031346177	0.00000000000000
380.28000000000	0.39944607416097	-112.88054628120	376.73031346177	0.00000000000000
380.89000000000	0.39797027894218	-116.11435449356	376.73031346177	0.00000000000000
381.50000000000	0.39674813242737	-119.30803223993	376.73031346177	0.00000000000000
382.11000000000	0.39581723659773	-122.46493892300	376.73031346177	0.00000000000000
382.72000000000	0.39520913034136	-125.58972530245	376.73031346177	0.00000000000000
383.33000000000	0.39494778581355	-128.68813798410	376.73031346177	0.00000000000000
383.94000000000	0.39504842318760	-131.76675606206	376.73031346177	0.00000000000000
384.55000000000	0.39551673497358	-134.83267712952	376.73031346177	0.00000000000000
385.16000000000	0.39634858020908	-137.89317651330	376.73031346177	0.00000000000000
385.77000000000	0.39753016886421	-140.95536728624	376.73031346177	0.00000000000000
386.38000000000	0.39903871334083	-144.02588858627	376.73031346177	0.00000000000000
386.99000000000	0.40084348329328	-147.11064602388	376.73031346177	0.00000000000000
387.60000000000	0.40290716777631	-150.21462127169	376.73031346177	0.00000000000000
388.21000000000	0.40518742868646	-153.34175962399	376.73031346177	0.00000000000000
388.82000000000	0.40763852288642	-156.49493587999	376.73031346177	0.00000000000000
389.43000000000	0.41021287618820	-159.67599162410	376.73031346177	0.00000000000000
390.04000000000	0.41286250770972	-162.88583167020	376.73031346177	0.00000000000000
390.65000000000	0.41554022442521	-166.12456438244	376.73031346177	0.00000000000000
391.26000000000	0.41820052955740	-169.39166959893	376.73031346177	0.00000000000000
391.87000000000	0.42080021214694	-172.68617848728	376.73031346177	0.00000000000000
392.48000000000	0.42329860709152	-176.00685127452	376.73031346177	0.00000000000000
393.09000000000	0.42565753461588	-179.35234089411	376.73031346177	0.00000000000000
393.70000000000	0.42784094570172	177.27866719398	376.73031346177	0.00000000000000
394.31000000000	0.42981431599181	173.88734661756	376.73031346177	0.00000000000000
394.92000000000	0.43154384551712	170.47465872010	376.73031346177	0.00000000000000
395.53000000000	0.43299553528910	167.04132178411	376.73031346177	0.00000000000000
396.14000000000	0.43413422376839	163.58782235824	376.73031346177	0.00000000000000
396.75000000000	0.43492267535016	160.11446798300	376.73031346177	0.00000000000000
397.36000000000	0.43532081791790	156.62147831873	376.73031346177	0.00000000000000
397.97000000000	0.43528522595200	153.10910956817	376.73031346177	0.00000000000000
398.58000000000	0.43476893850559	149.57780568327	376.73031346177	0.00000000000000
399.19000000000	0.43372168520365	146.02836998586	376.73031346177	0.00000000000000
399.80000000000	0.43209056065811	142.46215335738	376.73031346177	0.00000000000000
400.41000000000	0.42982112113711	138.88125947727	376.73031346177	0.00000000000000
401.02000000000	0.42685876353235	135.28876835314	376.73031346177	0.00000000000000
401.63000000000	0.42315014055475	131.68896557566	376.73031346177	0.00000000000000
402.24000000000	0.41864445522205	128.08753616083	376.73031346177	0.00000000000000
402.85000000000	0.41329486739150	124.49167813838	376.73031346177	0.00000000000000
403.46000000000	0.40706050434145	120.91015500430	376.73031346177	0.00000000000000
404.07000000000	0.39990914780234	117.35337743850	376.73031346177	0.00000000000000
404.68000000000	0.39182004470117	113.83358053380	376.73031346177	0.00000000000000
405.29000000000	0.38278630748623	110.36508414631	376.73031346177	0.00000000000000
405.90000000000	0.37281682682881	106.96459719473	376.73031346177	0.00000000000000
406.51000000000	0.36193787963183	103.65155261250	376.73031346177	0.00000000000000
407.12000000000	0.35019459368929	100.44848444366	376.73031346177	0.00000000000000
407.73000000000	0.33765234232734	97.381462898356	376.73031346177	0.00000000000000
408.34000000000	0.32439810010550	94.480594099399	376.73031346177	0.00000000000000
408.95000000000	0.31054179226633	91.780574216682	376.73031346177	0.00000000000000
409.56000000000	0.29621768860583	89.321259761478	376.73031346177	0.00000000000000
410.17000000000	0.28158590476463	87.148167653255	376.73031346177	0.00000000000000
410.78000000000	0.26683405904711	85.312735734219	376.73031346177	0.00000000000000
411.39000000000	0.25217905827543	83.872037951645	376.73031346177	0.00000000000000
412.00000000000	0.23786879920631	82.887441362034	376.73031346177	0.00000000000000
412.61000000000	0.22418319779037	82.421419187791	376.73031346177	0.00000000000000
413.22000000000	0.21143332108995	82.531471607302	376.73031346177	0.00000000000000
413.83000000000	0.19995649946303	83.260090782296	376.73031346177	0.00000000000000
414.44000000000	0.19010440840238	84.620423478836	376.73031346177	0.00000000000000
415.05000000000	0.18222102714335	86.579354920739	376.73031346177	0.00000000000000
415.66000000000	0.17660945652723	89.043236245387	376.73031346177	0.00000000000000
416.27000000000	0.17349179834659	91.854645169486	376.73031346177	0.00000000000000
416.88000000000	0.17297315020153	94.807481678322	376.73031346177	0.00000000000000
417.49000000000	0.17502406649963	97.679672797893	376.73031346177	0.00000000000000
418.10000000000	0.17949041658583	100.27188968339	376.73031346177	0.00000000000000
418.71000000000	0.18612723250036	102.43650505609	376.73031346177	0.00000000000000
419.32000000000	0.19464293424114	104.08774569012	376.73031346177	0.00000000000000
419.93000000000	0.20473922480293	105.19497025052	376.73031346177	0.00000000000000
420.54000000000	0.21613823038254	105.76729222037	376.73031346177	0.00000000000000
421.15000000000	0.22859576954350	105.83734697988	376.73031346177	0.00000000000000
421.76000000000	0.24190388951637	105.44843520812	376.73031346177	0.00000000000000
422.37000000000	0.25588682094800	104.64606768413	376.73031346177	0.00000000000000
422.98000000000	0.27039379047704	103.47325798617	376.73031346177	0.00000000000000
423.59000000000	0.28529099985979	101.96843588589	376.73031346177	0.00000000000000
424.20000000000	0.30045413621827	100.16496482918	376.73031346177	0.00000000000000
424.81000000000	0.31576214726418	98.091524741520	376.73031346177	0.00000000000000
425.42000000000	0.33109263342532	95.772881674483	376.73031346177	0.00000000000000
426.03000000000	0.34631897850921	93.230757790610	376.73031346177	0.00000000000000
426.64000000000	0.36130918853740	90.484642511382	376.73031346177	0.00000000000000
427.25000000000	0.37592629340964	87.552465884638	376.73031346177	0.00000000000000
427.86000000000	0.39003007175915	84.451104649720	376.73031346177	0.00000000000000
428.47000000000	0.40347978472591	81.196721521607	376.73031346177	0.00000000000000
429.08000000000	0.41613755547927	77.804955954368	376.73031346177	0.00000000000000
429.69000000000	0.42787201503241	74.290994209937	376.73031346177	0.00000000000000
430.30000000000	0.43856185457875	70.669550381317	376.73031346177	0.00000000000000
430.91000000000	0.44809897792893	66.954789674743	376.73031346177	0.00000000000000
431.52000000000	0.45639102653034	63.160221945840	376.73031346177	0.00000000000000
432.13000000000	0.46336314178555	59.298588261774	376.73031346177	0.00000000000000
432.74000000000	0.46895892134439	55.381757084545	376.73031346177	0.00000000000000
433.35000000000	0.47314060564384	51.420640380717	376.73031346177	0.00000000000000
433.96000000000	0.47588858985384	47.425134230176	376.73031346177	0.00000000000000
434.57000000000	0.47720039096522	43.404083789631	376.73031346177	0.00000000000000
435.18000000000	0.47708921098463	39.365269003190	376.73031346177	0.00000000000000
435.79000000000	0.47558222946105	35.315405282593	376.73031346177	0.00000000000000
