#
#"Frequency / GHz"	"S1,4 [Mag]"	"S1,4 [Pha in deg.]"
#---------------------------------------------------
290.00000000000	0.50655722124248	-78.377437742472
290.61000000000	0.51181545159802	-82.960581752962
291.22000000000	0.51699449813377	-87.571011101250
291.83000000000	0.52206812852556	-92.207809169979
292.44000000000	0.52700966261006	-96.869755466135
293.05000000000	0.53179236063889	-101.55530763332
293.66000000000	0.53638992544709	-106.26258751490
294.27000000000	0.54077711084988	-110.98937416217
294.88000000000	0.54493041852271	-115.73310632744
295.49000000000	0.54882885591643	-120.49089642086
296.10000000000	0.55245471944459	-125.25955715827
296.71000000000	0.55579436135763	-130.03564123092
297.32000000000	0.55883889636280	-134.81549335773
297.93000000000	0.56158480581190	-139.59531313214
298.54000000000	0.56403440327271	-144.37122625544
299.15000000000	0.56619613501973	-149.13936116340
299.76000000000	0.56808470125744	-153.89592779004
300.37000000000	0.56972099707681	-158.63729532668
300.98000000000	0.57113188428246	-163.36006634419
301.59000000000	0.57234981442468	-168.06114552171
302.20000000000	0.57341232803665	-172.73780240837
302.81000000000	0.57436145426211	-177.38772904341
303.42000000000	0.57524302865775	177.99090523440
304.03000000000	0.57610593589237	173.39939797888
304.64000000000	0.57700127052233	168.83845175548
305.25000000000	0.57798139653055	164.30810034314
305.86000000000	0.57909887963235	159.80761736917
306.47000000000	0.58040527061589	155.33540360914
307.08000000000	0.58194973668091	150.88885372911
307.69000000000	0.58377756898088	146.46421141458
308.30000000000	0.58592862745114	142.05643383741
308.91000000000	0.58843579850004	137.65910055840
309.52000000000	0.59132351760791	133.26441350881
310.13000000000	0.59460634814461	128.86333622885
310.74000000000	0.59828754969861	124.44590514523
311.35000000000	0.60235758390095	120.00171233636
311.96000000000	0.60679264246577	115.52051665432
312.57000000000	0.61155350660103	110.99290400193
313.18000000000	0.61658523199683	106.41090200737
313.79000000000	0.62181815563868	101.76846338316
314.40000000000	0.62717048641433	97.061759508056
315.01000000000	0.63255235139788	92.289260533344
315.62000000000	0.63787078576419	87.451611789588
316.23000000000	0.64303492370084	82.551343289056
316.84000000000	0.64796063515767	77.592466866695
317.45000000000	0.65257403162654	72.580022476832
318.06000000000	0.65681354797927	67.519631463627
318.67000000000	0.66063059935930	62.417102432747
319.28000000000	0.66398903865816	57.278118503749
319.89000000000	0.66686376705092	52.108017442035
320.50000000000	0.66923887972794	46.911661772544
321.11000000000	0.67110568656850	41.693386182540
321.72000000000	0.67246086568437	36.457004500193
322.33000000000	0.67330491516677	31.205857424597
322.94000000000	0.67364098426245	25.942883693683
323.55000000000	0.67347409906475	20.670700267220
324.16000000000	0.67281075167967	15.391680425429
324.77000000000	0.67165879342095	10.108021847517
325.38000000000	0.67002755788424	4.8217994523499
325.99000000000	0.66792813469905	-0.46500002025609
326.60000000000	0.66537371611584	-5.7504629902638
327.21000000000	0.66237994409849	-11.032753550195
327.82000000000	0.65896519386548	-16.310136438291
328.43000000000	0.65515074001149	-21.581016575759
329.04000000000	0.65096076285526	-26.843992615753
329.65000000000	0.64642216496115	-32.097921439650
330.26000000000	0.64156418022682	-37.341990157112
330.87000000000	0.63641776979438	-42.575791912700
331.48000000000	0.63101480956073	-47.799401659058
332.09000000000	0.62538708257818	-53.013447997025
332.70000000000	0.61956509573624	-58.219177160196
333.31000000000	0.61357674377602	-63.418505173928
333.92000000000	0.60744584538050	-68.614054070054
334.53000000000	0.60119057682202	-73.809167710052
335.14000000000	0.59482183002449	-79.007902186141
335.75000000000	0.58834152603247	-84.214984881456
336.36000000000	0.58174092435943	-89.435735068119
336.97000000000	0.57499898638713	-94.675937472276
337.58000000000	0.56808087975487	-99.941658719477
338.19000000000	0.56093675270989	-105.23899534457
338.80000000000	0.55350096320196	-110.57374169103
339.41000000000	0.54569201423146	-115.95096739702
340.02000000000	0.53741351601293	-121.37449839620
340.63000000000	0.52855654974684	-126.84630370647
341.24000000000	0.51900381911310	-132.36580378532
341.85000000000	0.50863590520679	-137.92913514972
342.46000000000	0.49733974542917	-143.52842899527
343.07000000000	0.48501910609400	-149.15118511228
343.68000000000	0.47160632124193	-154.77984028489
344.29000000000	0.45707400490597	-160.39163437675
344.90000000000	0.44144497048746	-165.95885935671
345.51000000000	0.42479841898635	-171.44953220854
346.12000000000	0.40727076532374	-176.82846521426
346.73000000000	0.38905029686206	177.94137099987
347.34000000000	0.37036602766618	172.89736659650
347.95000000000	0.35147226867949	168.07589613756
348.56000000000	0.33263116040331	163.51129474110
349.17000000000	0.31409536036505	159.23547434681
349.78000000000	0.29609187328010	155.27862431155
350.39000000000	0.27880437119562	151.67198627580
351.00000000000	0.26233824731147	148.45529806078
351.61000000000	0.24658698819564	145.69359094286
352.22000000000	0.23055124271831	143.44611207662
352.83000000000	0.21250358045094	140.64187189426
353.44000000000	0.20278470739974	137.16333740568
354.05000000000	0.19496315500057	135.35760637211
354.66000000000	0.18689312378687	134.04699907995
355.27000000000	0.17952296466203	132.99067561525
355.88000000000	0.17317140181029	132.14603371894
356.49000000000	0.16793186386150	131.48057463425
357.10000000000	0.16382188420608	130.95567442301
357.71000000000	0.16082818319424	130.52721799923
358.32000000000	0.15892282312948	130.14803032274
358.93000000000	0.15807033603240	129.77039994600
359.54000000000	0.15823166261598	129.34836282070
360.15000000000	0.15936680656012	128.83955200972
360.76000000000	0.16143683012384	128.20647478873
361.37000000000	0.16440535514231	127.41716603789
361.98000000000	0.16823956709202	126.44526342692
362.59000000000	0.17291067325380	125.26962457622
363.20000000000	0.17839376594185	123.87364362378
363.81000000000	0.18466705365105	122.24442594270
364.42000000000	0.19171043185062	120.37195684774
365.03000000000	0.19950336850874	118.24836693782
365.64000000000	0.20802208298665	115.86736406970
366.25000000000	0.21723601181527	113.22387565279
366.86000000000	0.22710359574215	110.31392621879
367.47000000000	0.23756750581134	107.13476206456
368.08000000000	0.24854956738564	103.68522336183
368.69000000000	0.25994584776056	99.966349902537
369.30000000000	0.27162263497235	95.982185305620
369.91000000000	0.28341430938960	91.740713305394
370.52000000000	0.29512430664552	87.254819263582
371.13000000000	0.30653035597162	82.543126201312
371.74000000000	0.31739480278831	77.630519789210
372.35000000000	0.32747999502766	72.548168246200
372.96000000000	0.33656748632293	67.332878229470
373.57000000000	0.34447846111163	62.025715799833
374.18000000000	0.35109178392407	56.669956744798
374.79000000000	0.35635592932597	51.308589246986
375.40000000000	0.36029208396361	45.981731792846
376.01000000000	0.36298781497823	40.724392346357
376.62000000000	0.36458317474159	35.564928768039
377.23000000000	0.36525288440646	30.524376233287
377.84000000000	0.36518851514190	25.616569476798
378.45000000000	0.36458348408055	20.848824097868
379.06000000000	0.36362207971227	16.222907911415
379.67000000000	0.36247247331995	11.736094052990
380.28000000000	0.36128304250373	7.3821715674697
380.89000000000	0.36018117287043	3.1523530931208
381.50000000000	0.35927376983361	-0.96394375408498
382.11000000000	0.35864885185786	-4.9784455287880
382.72000000000	0.35837774634885	-8.9034970308145
383.33000000000	0.35851754640410	-12.751649951601
383.94000000000	0.35911359957608	-16.535354212289
384.55000000000	0.36020188327223	-20.266740451050
385.16000000000	0.36181117604329	-23.957482968007
385.77000000000	0.36396496569244	-27.618732721071
386.38000000000	0.36668305258045	-31.261109232342
386.99000000000	0.36998281809307	-34.894738781760
387.60000000000	0.37388013954239	-38.529324795414
388.21000000000	0.37838994551021	-42.174235707459
388.82000000000	0.38352641836700	-45.838596273144
389.43000000000	0.38930286060610	-49.531370290642
390.04000000000	0.39573124649793	-53.261425456291
390.65000000000	0.40282147997436	-57.037573946806
391.26000000000	0.41058037518247	-60.868584699750
391.87000000000	0.41901037082078	-64.763164925206
392.48000000000	0.42810798683573	-68.729909108215
393.09000000000	0.43786203591915	-72.777213878209
393.70000000000	0.44825161568172	-76.913156997398
394.31000000000	0.45924393288209	-81.145338780760
394.92000000000	0.47079205015502	-85.480684930540
395.53000000000	0.48283269814208	-89.925211434399
396.14000000000	0.49528435890144	-94.483755147523
396.75000000000	0.50804589297383	-99.159678124641
397.36000000000	0.52099604011257	-103.95455961983
397.97000000000	0.53399415419801	-108.86789649707
398.58000000000	0.54688251366702	-113.89683967674
399.19000000000	0.55949045758055	-119.03599973943
399.80000000000	0.57164042022081	-124.27735707110
400.41000000000	0.58315567835542	-129.61030907484
401.02000000000	0.59386931666443	-135.02187766640
401.63000000000	0.60363361856511	-140.49708446070
402.24000000000	0.61232888012494	-146.01948048803
402.85000000000	0.61987059722769	-151.57179551099
403.46000000000	0.62621413015859	-157.13665368617
404.07000000000	0.63135628953960	-162.69729181760
404.68000000000	0.63533374039609	-168.23821643151
405.29000000000	0.63821857951498	-173.74574632171
405.90000000000	0.64011179965508	-179.20840534777
406.51000000000	0.64113554391618	175.38284829378
407.12000000000	0.64142506012602	170.03454997109
407.73000000000	0.64112112299361	164.75079198619
408.34000000000	0.64036346354037	159.53339179146
408.95000000000	0.63928549663842	154.38213181920
409.56000000000	0.63801041879907	149.29504000856
410.17000000000	0.63664858725405	144.26868547815
410.78000000000	0.63529599429996	139.29847039983
411.39000000000	0.63403360986988	134.37890561147
412.00000000000	0.63292736559117	129.50386303476
412.61000000000	0.63202857953715	124.66680218314
413.22000000000	0.63137465936819	119.86097093667
413.83000000000	0.63098996324862	115.07958249542
414.44000000000	0.63088673710535	110.31597124587
415.05000000000	0.63106608054695	105.56373043080
415.66000000000	0.63151892100752	100.81683421171
416.27000000000	0.63222699634348	96.069746115628
416.88000000000	0.63316386053003	91.317515087921
417.49000000000	0.63429593567733	86.555859521870
418.10000000000	0.63558363662803	81.781238781859
418.71000000000	0.63698259213715	76.990910953625
419.32000000000	0.63844497933254	72.182974915628
419.93000000000	0.63992097626412	67.356394406532
420.54000000000	0.64136032170929	62.511001637370
421.15000000000	0.64271395336738	57.647478221771
421.76000000000	0.64393567706883	52.767311805027
422.37000000000	0.64498380302894	47.872727752965
422.98000000000	0.64582267307120	42.966596553447
423.59000000000	0.64642399749090	38.052319072154
424.20000000000	0.64676792348037	33.133693329756
424.81000000000	0.64684376930326	28.214767843810
425.42000000000	0.64665037878899	23.299687622864
426.03000000000	0.64619607693478	18.392539464917
426.64000000000	0.64549823611730	13.497203213877
427.25000000000	0.64458248982973	8.6172150629404
427.86000000000	0.64348165342479	3.7556479423808
428.47000000000	0.64223442639699	-1.0849873619116
429.08000000000	0.64088395693693	-5.9028182555977
429.69000000000	0.63947634693662	-10.696662942813
430.30000000000	0.63805916569398	-15.466060264246
430.91000000000	0.63668002553620	-20.211278364595
431.52000000000	0.63538525517257	-24.933304291906
432.13000000000	0.63421868952820	-29.633816703221
432.74000000000	0.63322058051404	-34.315143541282
433.35000000000	0.63242662354323	-38.980205961279
433.96000000000	0.63186709085061	-43.632449079127
434.57000000000	0.63156606530094	-48.275759477175
435.18000000000	0.63154077700587	-52.914369057518
435.79000000000	0.63180105829780	-57.552744990649
436.40000000000	0.63234894786063	-62.195466331758
437.01000000000	0.63317848839445	-66.847089420499
437.62000000000	0.63427576965789	-71.512006318305
438.23000000000	0.63561926578456	-76.194302929463
438.84000000000	0.63718049955688	-80.897625558079
439.45000000000	0.63892503686772	-85.625065835054
440.06000000000	0.64081377575641	-90.379073652622
440.67000000000	0.64280445363967	-95.161405707473
441.28000000000	0.64485326308318	-99.973113662613
441.89000000000	0.64691644922462	-104.81457143720
442.50000000000	0.64895176552601	-109.68553666329
443.11000000000	0.65091968812556	-114.58523785713
443.72000000000	0.65278432661632	-119.51247700059
444.33000000000	0.65451401142859	-124.46573720417
444.94000000000	0.65608157594018	-129.44328664420
445.55000000000	0.65746437844045	-134.44327243357
446.16000000000	0.65864412256639	-139.46380081299
446.77000000000	0.65960653598234	-144.50300246728
447.38000000000	0.66034095948697	-149.55908353961
447.99000000000	0.66083988679186	-154.63036393738
448.60000000000	0.66109848277949	-159.71530488757
449.21000000000	0.66111409770842	-164.81252759611
449.82000000000	0.66088578778187	-169.92082451098
450.43000000000	0.66041384877928	-175.03916426335
451.04000000000	0.65969936838328	179.83330900479
451.65000000000	0.65874380341235	174.69728145718
452.26000000000	0.65754858937761	169.55328014598
452.87000000000	0.65611479077983	164.40168794142
453.48000000000	0.65444280076597	159.24276224981
454.09000000000	0.65253209784727	154.07665676818
454.70000000000	0.65038106524937	148.90344532247
455.31000000000	0.64798687521161	143.72314666921
455.92000000000	0.64534543641520	138.53574904550
456.53000000000	0.64245139805118	133.34123325957
457.14000000000	0.63929819927285	128.13959324594
457.75000000000	0.63587814840558	122.93085327903
458.36000000000	0.63218251282093	117.71508145038
458.97000000000	0.62820159832964	112.49239956181
459.58000000000	0.62392479678163	107.26299025664
460.19000000000	0.61934058270432	102.02710298078
460.80000000000	0.61443644462787	96.785061206429
461.41000000000	0.60919874453302	91.537274224036
462.02000000000	0.60361250982055	86.284257660372
462.63000000000	0.59766117642072	81.026667641409
463.24000000000	0.59132631900516	75.765354090940
463.85000000000	0.58458742427024	70.501438907728
464.46000000000	0.57742178492913	65.236424521024
465.07000000000	0.56980461356610	59.972337362622
465.68000000000	0.56170949388978	54.711908842728
466.29000000000	0.55310929767712	49.458793179045
466.90000000000	0.54397769262873	44.217816627978
467.51000000000	0.53429134182268	38.995246143468
468.12000000000	0.52403284147796	33.799057340252
468.73000000000	0.51319435431331	28.639172401370
469.34000000000	0.50178177051919	23.527629398736
469.95000000000	0.48981907689028	18.478637252396
470.56000000000	0.47735246025977	13.508467698308
471.17000000000	0.46445355108461	8.6351398101866
471.78000000000	0.45122117167042	3.8778659209979
472.39000000000	0.43778103048099	-0.74374915512014
473.00000000000	0.42428301567716	-5.2107324835989
473.61000000000	0.41089606633994	-9.5059324890240
474.22000000000	0.39780097742362	-13.615281491512
474.83000000000	0.38518183741261	-17.529013843553
475.44000000000	0.37321702162553	-21.242710577075
476.05000000000	0.36207071715326	-24.758047142117
476.66000000000	0.35188583461986	-28.083144826963
477.27000000000	0.34277890977866	-31.232467189903
477.88000000000	0.33483728208617	-34.226255925192
478.49000000000	0.32811852594477	-37.089558702247
479.10000000000	0.32265185389195	-39.850954770118
479.71000000000	0.31844103651407	-42.541121771895
480.32000000000	0.31546829732413	-45.191400742133
480.93000000000	0.31369863398070	-47.832502597416
481.54000000000	0.31308407328698	-50.493462568854
482.15000000000	0.31356746535954	-53.200898823017
482.76000000000	0.31508554024369	-55.978580149819
483.37000000000	0.31757106851224	-58.847265454246
483.98000000000	0.32095407180890	-61.824750736799
484.59000000000	0.32516211278420	-64.926048109506
485.20000000000	0.33011975640954	-68.163623286107
485.81000000000	0.33574734169972	-71.547628396247
486.42000000000	0.34195924280129	-75.086081592139
487.03000000000	0.34866183968507	-78.784960685967
487.64000000000	0.35575146713875	-82.648193449278
488.25000000000	0.36311266693728	-86.677541945911
488.86000000000	0.37061712480530	-90.872392775522
489.47000000000	0.37812371439489	-95.229479832161
490.08000000000	0.38548006884604	-99.742580990412
490.69000000000	0.39252602477090	-104.40224376643
491.30000000000	0.39909910556941	-109.19560486626
491.91000000000	0.40504192130932	-114.10637096514
492.52000000000	0.41021098679442	-119.11501929609
493.13000000000	0.41448606896135	-124.19925441869
493.74000000000	0.41777887791031	-129.33472294155
494.35000000000	0.42003982713679	-134.49594638877
494.96000000000	0.42126178006824	-139.65739295953
495.57000000000	0.42148015909318	-144.79458187811
496.18000000000	0.42076941207411	-149.88510699697
496.79000000000	0.41923644180040	-154.90948118405
497.40000000000	0.41701204336314	-159.85173514118
498.01000000000	0.41424156797713	-164.69974441678
498.62000000000	0.41107593877554	-169.44529630726
499.23000000000	0.40766386172062	-174.08393641664
499.84000000000	0.40414571398803	-178.61464952437
500.45000000000	0.40064925310616	176.96056806848
501.06000000000	0.39728703537473	172.63719386555
501.67000000000	0.39415528214635	168.40868209622
502.28000000000	0.39133387622129	164.26695554069
502.89000000000	0.38888718038503	160.20286704014
503.50000000000	0.38686541548820	156.20661796022
504.11000000000	0.38530639114123	152.26812454356
504.72000000000	0.38423743153502	148.37732491135
505.33000000000	0.38367737456190	144.52442075079
505.94000000000	0.38363854409163	140.70004960052
506.55000000000	0.38412860746886	136.89538674916
507.16000000000	0.38515223934587	133.10218003577
507.77000000000	0.38671252427458	129.31272561890
508.38000000000	0.38881204680961	125.51979707102
508.99000000000	0.39145363875484	121.71654302957
509.60000000000	0.39464077565208	117.89636955523
510.21000000000	0.39837763470934	114.05282230925
510.82000000000	0.40266884075997	110.17948113564
511.43000000000	0.40751893391231	106.26987635437
512.04000000000	0.41293159268549	102.31743278290
512.65000000000	0.41890864167853	98.315444771387
513.26000000000	0.42544886617707	94.257083653422
513.87000000000	0.43254665080499	90.135438007673
514.48000000000	0.44019045837739	85.943586822237
515.09000000000	0.44836117102653	81.674705759097
515.70000000000	0.45703033038022	77.322206882877
516.31000000000	0.46615833826847	72.879912091000
516.92000000000	0.47569271426878	68.342259724919
517.53000000000	0.48556654988961	63.704542161408
518.14000000000	0.49569734738024	58.963169364109
518.75000000000	0.50598647669571	54.115949341201
519.36000000000	0.51631951570307	49.162371349468
519.97000000000	0.52656774130662	44.103871973115
520.58000000000	0.53659099621324	38.944058750403
521.19000000000	0.54624205368484	33.688862085392
521.80000000000	0.55537243607399	28.346585289225
522.41000000000	0.56383942354989	22.927826203467
523.02000000000	0.57151374915000	17.445252868148
523.63000000000	0.57828726595591	11.913229919167
524.24000000000	0.58407975083538	6.3473101972427
524.85000000000	0.58884402570161	0.76362440988613
525.46000000000	0.59256875026595	-4.8217831622186
526.07000000000	0.59527854577802	-10.393616454858
526.68000000000	0.59703148342269	-15.937930715451
527.29000000000	0.59791432928163	-21.442629649007
527.90000000000	0.59803620239265	-26.897824794011
528.51000000000	0.59752142678087	-32.296043719971
529.12000000000	0.59650233727109	-37.632291285712
529.73000000000	0.59511266336223	-42.903982140327
530.34000000000	0.59348191611123	-48.110771334148
530.95000000000	0.59173099170200	-53.254313204737
531.56000000000	0.58996902173096	-58.337977537572
532.17000000000	0.58829136591124	-63.366547822869
532.78000000000	0.58677856297834	-68.345920737152
533.39000000000	0.58549602366050	-73.282820006125
534.00000000000	0.58449425358047	-78.184532397279
