#
#"Frequency / GHz"	"S1,4 [Mag]"	"S1,4 [Pha in deg.]"
#---------------------------------------------------
290.00000000000	0.54578652214722	19.135556264118
290.61000000000	0.54716914156230	15.174558092981
291.22000000000	0.54864298467894	11.224686227046
291.83000000000	0.55021895105941	7.2837035669806
292.44000000000	0.55190490883666	3.3494820291877
293.05000000000	0.55370629735797	-0.57996766806182
293.66000000000	0.55562671061582	-4.5064855787180
294.27000000000	0.55766841491114	-8.4317690848883
294.88000000000	0.55983276218782	-12.357392830146
295.49000000000	0.56212047142738	-16.284837518611
296.10000000000	0.56453176356375	-20.215522580568
296.71000000000	0.56706634937216	-24.150837688792
297.32000000000	0.56972328333717	-28.092168555703
297.93000000000	0.57250070832458	-32.040913283134
298.54000000000	0.57539552497642	-35.998486662763
299.15000000000	0.57840302555421	-39.966311102028
299.76000000000	0.58151653436309	-43.945794144825
300.37000000000	0.58472709616356	-47.938293755615
300.98000000000	0.58802325061016	-51.945073559424
301.59000000000	0.59139092530424	-55.967251032513
302.20000000000	0.59481347300088	-60.005742202836
302.81000000000	0.59827187021939	-64.061206748913
303.42000000000	0.60174508519360	-68.133997492314
304.03000000000	0.60521061291299	-72.224118174884
304.64000000000	0.60864516414079	-76.331193104811
305.25000000000	0.61202548409066	-80.454451749660
305.86000000000	0.61532926546768	-84.592730654346
306.47000000000	0.61853611065472	-88.744494180316
307.08000000000	0.62162848995921	-92.907874527562
307.69000000000	0.62459263809398	-97.080730362586
308.30000000000	0.62741933036346	-101.26072220385
308.91000000000	0.63010448392035	-105.44540159884
309.52000000000	0.63264953796604	-109.63231015675
310.13000000000	0.63506157928777	-113.81908376298
310.74000000000	0.63735319488241	-118.00355685797
311.35000000000	0.63954205004189	-122.18386154134
311.96000000000	0.64165020649300	-126.35851645176
312.57000000000	0.64370320952530	-130.52650082689
313.18000000000	0.64572898452557	-134.68730979693
313.79000000000	0.64775659163407	-138.84098773581
314.40000000000	0.64981489267570	-142.98813732562
315.01000000000	0.65193118792509	-147.12990285675
315.62000000000	0.65412988266880	-151.26792720120
316.23000000000	0.65643124577445	-155.40428291443
316.84000000000	0.65885032483107	-159.54137911765
317.45000000000	0.66139608424826	-163.68184725615
318.06000000000	0.66407083231836	-167.82841053749
318.67000000000	0.66686999808613	-171.98374375147
319.28000000000	0.66978230600001	-176.15033205555
319.89000000000	0.67279037333543	179.66966116136
320.50000000000	0.67587172156490	175.47450647683
321.11000000000	0.67900015024728	171.26299029914
321.72000000000	0.68214737597542	167.03445797215
322.33000000000	0.68528479767558	162.78881318966
322.94000000000	0.68838522251136	158.52647346448
323.55000000000	0.69142438182630	154.24828655772
324.16000000000	0.69438208783662	149.95541750093
324.77000000000	0.69724292710301	145.64921923213
325.38000000000	0.69999644821654	141.33110126879
325.99000000000	0.70263686680563	137.00241005662
326.60000000000	0.70516236853209	132.66433194180
327.21000000000	0.70757413061060	128.31782577706
327.82000000000	0.70987519993375	123.96358781639
328.43000000000	0.71206936183960	119.60204755377
329.04000000000	0.71416011277146	115.23339006835
329.65000000000	0.71614981945320	110.85759851097
330.26000000000	0.71803911361172	106.47450959121
330.87000000000	0.71982654011697	102.08387509885
331.48000000000	0.72150845096961	97.685423328264
332.09000000000	0.72307911912813	93.278915472154
332.70000000000	0.72453103451137	88.864193369035
333.31000000000	0.72585533855346	84.441216255002
333.92000000000	0.72704235203900	80.010085286042
334.53000000000	0.72808215228755	75.571055521666
335.14000000000	0.72896515904266	71.124535791146
335.75000000000	0.72968269291588	66.671077418144
336.36000000000	0.73022747547984	62.211353183356
336.97000000000	0.73059404581579	57.746128182286
337.58000000000	0.73077907431470	53.276224406334
338.19000000000	0.73078156064204	48.802480954836
338.80000000000	0.73060290881989	44.325711784639
339.41000000000	0.73024687813380	39.846662831866
340.02000000000	0.72971941379555	35.365970207675
340.63000000000	0.72902836574727	30.884120987945
341.24000000000	0.72818310747944	26.401417900020
341.85000000000	0.72719406912642	21.917948974174
342.46000000000	0.72607220036041	17.433562990774
343.07000000000	0.72482837879039	12.947851333357
343.68000000000	0.72347277884424	8.4601366689804
344.29000000000	0.72201421470889	3.9694687332650
344.90000000000	0.72045946912108	-0.52537259167129
345.51000000000	0.71881261797613	-5.0258667471693
346.12000000000	0.71707435920117	-9.5337343239696
346.73000000000	0.71524135347092	-14.050910960875
347.34000000000	0.71330558446020	-18.579512890121
347.95000000000	0.71125374773617	-23.121793521277
348.56000000000	0.70906668036679	-27.680090251006
349.17000000000	0.70671884807644	-32.256760482367
349.78000000000	0.70417791344501	-36.854105665300
350.39000000000	0.70140441720820	-41.474282069087
351.00000000000	0.69835161493564	-46.119197017873
351.61000000000	0.69496552266064	-50.790389522441
352.22000000000	0.69118523635523	-55.488894694944
352.83000000000	0.68694359980787	-60.215092112216
353.44000000000	0.68216830105929	-64.968539465719
354.05000000000	0.67678347593956	-69.747794448720
354.66000000000	0.67071188473473	-74.550229885967
355.27000000000	0.66387770085508	-79.371849537509
355.88000000000	0.65620990567273	-84.207114635903
356.49000000000	0.64764622062982	-89.048793754572
357.10000000000	0.63813742904082	-93.887850647842
357.71000000000	0.62765185330222	-98.713385765572
358.32000000000	0.61617967133501	-103.51264674902
358.93000000000	0.60373669607009	-108.27112101372
359.54000000000	0.59036722185316	-112.97271944920
360.15000000000	0.57614557635771	-117.60005463422
360.76000000000	0.56117611145936	-122.13481051812
361.37000000000	0.54559151388440	-126.55819430633
361.98000000000	0.52954949477741	-130.85145642955
362.59000000000	0.51322809507975	-134.99646181943
363.20000000000	0.49681998697764	-138.97629550270
363.81000000000	0.48052623390681	-142.77588719705
364.42000000000	0.46454998042256	-146.38264179265
365.03000000000	0.44909048379760	-149.78706346284
365.64000000000	0.43433779160267	-152.98335878484
366.25000000000	0.42046824231544	-155.96999742989
366.86000000000	0.40764084813078	-158.75019780927
367.47000000000	0.39599453282752	-161.33229156454
368.08000000000	0.38564615375225	-163.72990909844
368.69000000000	0.37668923398728	-165.96192417718
369.30000000000	0.36919335566130	-168.05210479821
369.91000000000	0.36320419809382	-170.02844350628
370.52000000000	0.35874422392499	-171.92218180890
371.13000000000	0.35581400725922	-173.76659277055
371.74000000000	0.35439415620338	-175.59563079074
372.35000000000	0.35444771727345	-177.44258461867
372.96000000000	0.35592288013236	-179.33886988492
373.57000000000	0.35875574961006	178.68692974864
374.18000000000	0.36287293378552	176.60971026394
374.79000000000	0.36819371703573	174.40817400094
375.40000000000	0.37463163944818	172.06487166277
376.01000000000	0.38209537631412	169.56602665941
376.62000000000	0.39048889019096	166.90122189451
377.23000000000	0.39971090348816	164.06302687685
377.84000000000	0.40965380728135	161.04663055511
378.45000000000	0.42020218215735	157.84952777904
379.06000000000	0.43123116139934	154.47128880917
379.67000000000	0.44260491683155	150.91342417710
380.28000000000	0.45417559065660	147.17934236109
380.89000000000	0.46578302482410	143.27438525246
381.50000000000	0.47725563949358	139.20591606623
382.11000000000	0.48841276690577	134.98342623180
382.72000000000	0.49906864011107	130.61862239583
383.33000000000	0.50903805895567	126.12545295477
383.94000000000	0.51814351592164	121.52003668024
384.55000000000	0.52622329161810	116.82046487269
385.16000000000	0.53313977626509	112.04646304606
385.77000000000	0.53878710493439	107.21891699528
386.38000000000	0.54309717035279	102.35928835538
386.99000000000	0.54604322857480	97.488962563324
387.60000000000	0.54764062454397	92.628583643230
388.21000000000	0.54794457366934	87.797432832775
388.82000000000	0.54704534925042	83.012901260713
389.43000000000	0.54506155139703	78.290092488763
390.04000000000	0.54213230848350	73.641572255522
390.65000000000	0.53840927088403	69.077264261992
391.26000000000	0.53404912648887	64.604475747662
391.87000000000	0.52920715332535	60.228026953474
392.48000000000	0.52403208728224	55.950454791601
393.09000000000	0.51866237165036	51.772262280703
393.70000000000	0.51322369894861	47.692189935657
394.31000000000	0.50782766290141	43.707491483625
394.92000000000	0.50257130266776	39.814202379784
395.53000000000	0.49753732701751	36.007394448947
396.14000000000	0.49279483509052	32.281413008256
396.75000000000	0.48840038662967	28.630094056799
397.36000000000	0.48439930688921	25.046959073480
397.97000000000	0.48082713439243	21.525384448992
398.58000000000	0.47771113334693	18.058742387189
399.19000000000	0.47507180044447	14.640510757838
399.80000000000	0.47292430273782	11.264350941998
400.41000000000	0.47127979294006	7.9241548513369
401.02000000000	0.47014656206752	4.6140644721003
401.63000000000	0.46953100569695	1.3284689562531
402.24000000000	0.46943839668587	-1.9380148605811
402.85000000000	0.46987347135892	-5.1905726354485
403.46000000000	0.47084084609894	-8.4342281903203
404.07000000000	0.47234528642976	-11.673880554807
404.68000000000	0.47439185152770	-14.914339432204
405.29000000000	0.47698593475805	-18.160357209839
405.90000000000	0.48013321657254	-21.416656471298
406.51000000000	0.48383954104123	-24.687952535451
407.12000000000	0.48811072224249	-27.978970864181
407.73000000000	0.49295228220520	-31.294459294723
408.34000000000	0.49836911835445	-34.639195018724
408.95000000000	0.50436509557818	-38.017986098705
409.56000000000	0.51094255617343	-41.435667124058
410.17000000000	0.51810174012925	-44.897088393740
410.78000000000	0.52584010860155	-48.407097794966
411.39000000000	0.53415156526840	-51.970514346650
412.00000000000	0.54302557385264	-55.592092213662
412.61000000000	0.55244617588207	-59.276473897786
413.22000000000	0.56239092119185	-63.028131304841
413.83000000000	0.57282973520159	-66.851293514572
414.44000000000	0.58372376191874	-70.749860389146
415.05000000000	0.59502423990535	-74.727301702042
415.66000000000	0.60667148951199	-78.786542307147
416.27000000000	0.61859411210297	-82.929835042742
416.88000000000	0.63070852321955	-87.158624595343
417.49000000000	0.64291895778877	-91.473407404048
418.10000000000	0.65511809145159	-95.873594764314
418.71000000000	0.66718841189434	-100.35738839267
419.32000000000	0.67900444193696	-104.92167953625
419.93000000000	0.69043585805624	-109.56198385497
420.54000000000	0.70135146381218	-114.27242432573
421.15000000000	0.71162387289751	-119.04577291315
421.76000000000	0.72113464372815	-123.87355847808
422.37000000000	0.72977950534969	-128.74624339583
422.98000000000	0.73747324486960	-133.65346504637
423.59000000000	0.74415380956597	-138.58433151367
424.20000000000	0.74978522410550	-143.52775454908
424.81000000000	0.75435903376092	-148.47279822337
425.42000000000	0.75789414244504	-153.40901959669
426.03000000000	0.76043509249539	-158.32677859623
426.64000000000	0.76204899942811	-163.21749794647
427.25000000000	0.76282148096027	-168.07385974669
427.86000000000	0.76285198770432	-172.88993209000
428.47000000000	0.76224894914675	-177.66122584598
429.08000000000	0.76112510166194	177.61531255991
429.69000000000	0.75959328258129	172.94136244281
430.30000000000	0.75776287569196	168.31733203454
430.91000000000	0.75573699677500	163.74249076879
431.52000000000	0.75361042555193	159.21511867334
432.13000000000	0.75146822928642	154.73266252889
432.74000000000	0.74938498458344	150.29189057319
433.35000000000	0.74742448523804	145.88903974827
433.96000000000	0.74563982095560	141.51995155645
434.57000000000	0.74407371953154	137.18019436393
435.18000000000	0.74275905923200	132.86517140988
435.79000000000	0.74171947518606	128.57021484677
436.40000000000	0.74097000117500	124.29066688974
437.01000000000	0.74051770483373	120.02194963994
437.62000000000	0.74036228925634	115.75962541922
438.23000000000	0.74049664711138	111.49944955102
438.84000000000	0.74090736468419	107.23741747400
439.45000000000	0.74157518291558	102.96980789891
440.06000000000	0.74247543058807	98.693223423498
440.67000000000	0.74357845127600	94.404629615270
441.28000000000	0.74485005030893	90.101393068426
441.89000000000	0.74625199044341	85.781318362560
442.50000000000	0.74774256475784	81.442683231335
443.11000000000	0.74927727207298	77.084270638913
443.72000000000	0.75080961369725	72.705395920411
444.33000000000	0.75229202052956	68.305926735980
444.94000000000	0.75367690693656	63.886293379511
445.55000000000	0.75491783322641	59.447487023351
446.16000000000	0.75597074328172	54.991043799144
446.77000000000	0.75679522965894	50.519013212058
447.38000000000	0.75735576704587	46.033910227301
447.99000000000	0.75762284813657	41.538651386388
448.60000000000	0.75757395508806	37.036476410124
449.21000000000	0.75719430544717	32.530857812004
449.82000000000	0.75647732359752	28.025401962954
450.43000000000	0.75542480627523	23.523745712840
451.04000000000	0.75404677164209	19.029453011841
451.65000000000	0.75236100337477	14.545915951636
452.26000000000	0.75039232169219	10.076264273544
452.87000000000	0.74817162995227	5.6232867214249
453.48000000000	0.74573479678756	1.1893667368575
454.09000000000	0.74312143894254	-3.2235659936239
454.70000000000	0.74037366912559	-7.6140676192239
455.31000000000	0.73753486715522	-11.981196212220
455.92000000000	0.73464852284345	-16.324512978577
456.53000000000	0.73175718704215	-20.644070244582
457.14000000000	0.72890155467284	-24.940388194869
457.75000000000	0.72611969172035	-29.214422460691
458.36000000000	0.72344640807652	-33.467524615128
458.97000000000	0.72091277033391	-37.701397469228
459.58000000000	0.71854574331902	-41.918046828003
460.19000000000	0.71636794616585	-46.119731102076
460.80000000000	0.71439750769514	-50.308909914898
461.41000000000	0.71264800630740	-54.488192620102
462.02000000000	0.71112848103020	-58.660287460483
462.63000000000	0.70984350235578	-62.827951961028
463.24000000000	0.70879329372525	-66.993945048917
463.85000000000	0.70797389672457	-71.160981326249
464.46000000000	0.70737737509845	-75.331687878958
465.07000000000	0.70699205445740	-79.508563982283
465.68000000000	0.70680279597763	-83.693944055095
466.29000000000	0.70679130340326	-87.889964219241
466.90000000000	0.70693646319258	-92.098532832630
467.51000000000	0.70721471764060	-96.321305381534
468.12000000000	0.70760047021471	-100.55966413227
468.73000000000	0.70806652114277	-104.81470294684
469.34000000000	0.70858452952496	-109.08721765168
469.95000000000	0.70912549599174	-113.37770230411
470.56000000000	0.70966025735588	-117.68635161755
471.17000000000	0.71015998202341	-122.01306967969
471.78000000000	0.71059665240825	-126.35748492270
472.39000000000	0.71094351853775	-130.71897108539
473.00000000000	0.71117550574540	-135.09667365052
473.61000000000	0.71126955909318	-139.48954095756
474.22000000000	0.71120490815159	-143.89635890119
474.83000000000	0.71096323809826	-148.31578784448
475.44000000000	0.71052875676507	-152.74640012707
476.05000000000	0.70988815214363	-157.18671634816
476.66000000000	0.70903044071735	-161.63523847127
477.27000000000	0.70794671352216	-166.09047774244
477.88000000000	0.70662979370935	-170.55097544492
478.49000000000	0.70507382626454	-175.01531463522
479.10000000000	0.70327382713825	-179.48212122069
479.71000000000	0.70122522513444	176.04994694973
480.32000000000	0.69892343529522	171.58222389460
480.93000000000	0.69636350702768	167.11607258884
481.54000000000	0.69353989359122	162.65293504061
482.15000000000	0.69044639139554	158.19439422390
482.76000000000	0.68707629719874	153.74224569349
483.37000000000	0.68342282777322	149.29857543959
483.98000000000	0.67947983862437	144.86583903261
484.59000000000	0.67524286435904	140.44693539494
485.20000000000	0.67071048175571	136.04526670892
485.81000000000	0.66588596634832	131.66477421325
486.42000000000	0.66077917429217	127.30993824889
487.03000000000	0.65540853509294	122.98573030656
487.64000000000	0.64980299157474	118.69750551430
488.25000000000	0.64400367822220	114.45082652863
488.86000000000	0.63806509731474	110.25121461329
489.47000000000	0.63205554496991	106.10383100177
490.08000000000	0.62605656623851	102.01310118397
490.69000000000	0.62016128559227	97.982305648613
491.30000000000	0.61447156521864	94.013171274442
491.91000000000	0.60909407808956	90.105505844820
492.52000000000	0.60413552658420	86.256921702927
493.13000000000	0.59969736554059	82.462691386992
493.74000000000	0.59587047572383	78.715767278273
494.35000000000	0.59273026076040	75.006979600433
494.96000000000	0.59033260018868	71.325405104137
495.57000000000	0.58871099019056	67.658876468069
496.18000000000	0.58787506132325	63.994584320183
496.79000000000	0.58781050634762	60.319713496344
497.40000000000	0.58848030879875	56.622054473563
498.01000000000	0.58982705579429	52.890539240801
498.62000000000	0.59177605769557	49.115665570840
499.23000000000	0.59423898221194	45.289791038550
499.84000000000	0.59711773199095	41.407294600789
500.45000000000	0.60030833862485	37.464616526402
501.06000000000	0.60370469811161	33.460195758720
501.67000000000	0.60720202206733	29.394327510969
502.28000000000	0.61069991903483	25.268963991698
502.89000000000	0.61410504932916	21.087478925716
503.50000000000	0.61733331669256	16.854413194865
504.11000000000	0.62031157408318	12.575215382273
504.72000000000	0.62297883292836	8.2559877983441
505.33000000000	0.62528697798664	3.9032459054816
505.94000000000	0.62720100498356	-0.47630307209171
506.55000000000	0.62869881531775	-4.8759582922689
507.16000000000	0.62977062016850	-9.2891975968331
507.77000000000	0.63041802360099	-13.709822682554
508.38000000000	0.63065286932726	-18.132077017664
508.99000000000	0.63049594799326	-22.550737283627
509.60000000000	0.62997567132878	-26.961179431017
510.21000000000	0.62912682539835	-31.359419441035
510.82000000000	0.62798950975157	-35.742125303572
511.43000000000	0.62660832207473	-40.106589017841
512.04000000000	0.62503167944341	-44.450636677809
512.65000000000	0.62331075734936	-48.772454717569
513.26000000000	0.62149695670052	-53.070362958181
513.87000000000	0.61963703123972	-57.342710182962
514.48000000000	0.61776769454667	-61.588172717993
515.09000000000	0.61591496576325	-65.806430822500
515.70000000000	0.61410049931656	-69.998610906431
516.31000000000	0.61234871235878	-74.167014918291
516.92000000000	0.61068813968431	-78.314486950927
517.53000000000	0.60914803891771	-82.443984844827
518.14000000000	0.60775447947502	-86.558469106978
518.75000000000	0.60652790810326	-90.660932993697
519.36000000000	0.60548205036369	-94.754427648735
519.97000000000	0.60462354839351	-98.842033514897
520.58000000000	0.60395197827517	-102.92678050648
521.19000000000	0.60346014261821	-107.01153382690
521.80000000000	0.60313465194908	-111.09886369070
522.41000000000	0.60295682925082	-115.19091615712
523.02000000000	0.60290394290023	-119.28930094302
523.63000000000	0.60295072426051	-123.39500997689
524.24000000000	0.60307107605925	-127.50837698158
524.85000000000	0.60323983962916	-131.62908351627
525.46000000000	0.60343447195823	-135.75621125904
526.07000000000	0.60363649092660	-139.88833482188
526.68000000000	0.60383257695650	-144.02364503351
527.29000000000	0.60401526448822	-148.16009009472
527.90000000000	0.60418320741063	-152.29552154434
528.51000000000	0.60434104908865	-156.42783334383
529.12000000000	0.60449896267030	-160.55508504012
529.73000000000	0.60467194736902	-164.67560320844
530.34000000000	0.60487897153167	-168.78805857656
530.95000000000	0.60514204635760	-172.89151893110
531.56000000000	0.60548529930018	-176.98547986642
532.17000000000	0.60593409770629	178.93012338544
532.78000000000	0.60651425461172	174.85491931706
533.39000000000	0.60725133215017	170.78811501007
534.00000000000	0.60817004496015	166.72851919500
