#
#"Frequency / GHz"	"S1,4 [Mag]"	"S1,4 [Pha in deg.]"
#---------------------------------------------------
290.00000000000	0.59145899655907	145.80124563256
290.61000000000	0.59531039194351	142.53249223347
291.22000000000	0.59959687921181	139.22504971820
291.83000000000	0.60427459097727	135.87486512946
292.44000000000	0.60929402999651	132.47863387639
293.05000000000	0.61460086791153	129.03383913680
293.66000000000	0.62013678756783	125.53877238480
294.27000000000	0.62584037503186	121.99253823199
294.88000000000	0.63164807290663	118.39504606800
295.49000000000	0.63749520649673	114.74699008959
296.10000000000	0.64331708905653	111.04981843412
296.71000000000	0.64905020263053	107.30569144723
297.32000000000	0.65463343823045	103.51742872217
297.93000000000	0.66000936504660	99.688444498724
298.54000000000	0.66512548505805	95.822671298600
299.15000000000	0.66993541882769	91.924472251736
299.76000000000	0.67439996227327	87.998543347084
300.37000000000	0.67848795413516	84.049807708233
300.98000000000	0.68217690031484	80.083304823132
301.59000000000	0.68545331393381	76.104078327867
302.20000000000	0.68831274764031	72.117066356351
302.81000000000	0.69075951539494	68.126998557126
303.42000000000	0.69280612226657	64.138303624427
304.03000000000	0.69447244018779	60.155030618553
304.64000000000	0.69578468302909	56.180786525370
305.25000000000	0.69677424429380	52.218691518436
305.86000000000	0.69747646459195	48.271352344078
306.47000000000	0.69792939404192	44.340853250135
307.08000000000	0.69817260778136	40.428763006826
307.69000000000	0.69824612220244	36.536155882363
308.30000000000	0.69818944690295	32.663643968410
308.91000000000	0.69804079413452	28.811418006653
309.52000000000	0.69783645497613	24.979293832582
310.13000000000	0.69761034046345	21.166761695840
310.74000000000	0.69739367702164	17.373035999643
311.35000000000	0.69721483900494	13.597103383658
311.96000000000	0.69709929692243	9.8377675146584
312.57000000000	0.69706965782012	6.0936894111733
313.18000000000	0.69714577398291	2.3634225808742
313.79000000000	0.69734489725297	-1.3545573322823
314.40000000000	0.69768185845923	-5.0618283288931
315.01000000000	0.69816925436436	-8.7600029007074
315.62000000000	0.69881762784193	-12.450713352841
316.23000000000	0.69963563043087	-16.135600856363
316.84000000000	0.70063015975837	-19.816307400373
317.45000000000	0.70180646741546	-23.494469788953
318.06000000000	0.70316823560409	-27.171714856588
318.67000000000	0.70471762319125	-30.849655144407
319.28000000000	0.70645528369291	-34.529884377216
319.89000000000	0.70838035918620	-38.213972197099
320.50000000000	0.71049045526143	-41.903457733906
321.11000000000	0.71278160293264	-45.599841719465
321.72000000000	0.71524821399068	-49.304576975899
322.33000000000	0.71788303665875	-53.019057226036
322.94000000000	0.72067711864006	-56.744604284937
323.55000000000	0.72361978474741	-60.482453795602
324.16000000000	0.72669863627690	-64.233739769761
324.77000000000	0.72989957910943	-67.999478286691
325.38000000000	0.73320688715455	-71.780550789110
325.99000000000	0.73660330714231	-75.577687494182
326.60000000000	0.74007020986797	-79.391451507918
327.21000000000	0.74358779175152	-83.222224289231
327.82000000000	0.74713532895937	-87.070193152210
328.43000000000	0.75069148433954	-90.935341517251
329.04000000000	0.75423466506807	-94.817442619941
329.65000000000	0.75774342624813	-98.716057356636
330.26000000000	0.76119691284513	-102.63053688566
330.87000000000	0.76457532940220	-106.56003051134
331.48000000000	0.76786042411783	-110.50349925536
332.09000000000	0.77103597124525	-114.45973536737
332.70000000000	0.77408823355033	-118.42738784879
333.31000000000	0.77700638488897	-122.40499386214
333.92000000000	0.77978287194374	-126.39101567779
334.53000000000	0.78241369387355	-130.38388257117
335.14000000000	0.78489857912345	-134.38203682737
335.75000000000	0.78724103995628	-138.38398273199
336.36000000000	0.78944828746151	-142.38833712469
336.97000000000	0.79153099300274	-146.39387976024
337.58000000000	0.79350288650626	-150.39960136347
338.19000000000	0.79538018802709	-154.40474689279
338.80000000000	0.79718087708800	-158.40885117633
339.41000000000	0.79892381480457	-162.41176381614
340.02000000000	0.80062774701109	-166.41366016445
340.63000000000	0.80231023222271	-170.41503538390
341.24000000000	0.80398655524096	-174.41667924510
341.85000000000	0.80566870336397	-178.41963050152
342.46000000000	0.80736449419149	177.57488854848
343.07000000000	0.80907694780534	173.56555443861
343.68000000000	0.81080398758402	169.55103647802
344.29000000000	0.81253853039923	165.53009458022
344.90000000000	0.81426898860956	161.50167171080
345.51000000000	0.81598015719808	157.46497132591
346.12000000000	0.81765440755214	153.41951134788
346.73000000000	0.81927306510898	149.36514890822
347.34000000000	0.82081782137383	145.30207386575
347.95000000000	0.82227202819686	141.23077325461
348.56000000000	0.82362174448929	137.15197249576
349.17000000000	0.82485644751138	133.06656170772
349.78000000000	0.82596937281763	128.97551639448
350.39000000000	0.82695749787779	124.87982118636
351.00000000000	0.82782122505598	120.78040351950
351.61000000000	0.82856384465657	116.67808170424
352.22000000000	0.82919086717274	112.57352930885
352.83000000000	0.82970930830956	108.46725560731
353.44000000000	0.83012699539444	104.35960025464
354.05000000000	0.83045194439194	100.25073942766
354.66000000000	0.83069183708173	96.140700332140
355.27000000000	0.83085361084060	92.029381086011
355.88000000000	0.83094316031287	87.916573379305
356.49000000000	0.83096514134647	83.801985840293
357.10000000000	0.83092286248489	79.685266592778
357.71000000000	0.83081824724804	75.566024001069
358.32000000000	0.83065185052742	71.443845029024
358.93000000000	0.83042291387642	67.318310974459
359.54000000000	0.83012944665316	63.189010583862
360.15000000000	0.82976832241981	59.055550715810
360.76000000000	0.82933538240979	54.917564820311
361.37000000000	0.82882554007074	50.774719550280
361.98000000000	0.82823288258149	46.626719834194
362.59000000000	0.82755076679843	42.473312726781
363.20000000000	0.82677190831315	38.314290326253
363.81000000000	0.82588846321919	34.149492008776
364.42000000000	0.82489210282690	29.978806188696
365.03000000000	0.82377408195801	25.802171770409
365.64000000000	0.82252530163375	21.619579417541
366.25000000000	0.82113636696868	17.431072729836
366.86000000000	0.81959764093077	13.236749389845
367.47000000000	0.81789929435586	9.0367623221253
368.08000000000	0.81603135224845	4.8313208989331
368.69000000000	0.81398373599711	0.62069223010872
369.30000000000	0.81174630072972	-3.5947974073665
369.91000000000	0.80930886668117	-7.8147609114310
370.52000000000	0.80666124320864	-12.038748329853
371.13000000000	0.80379324403701	-16.266244261775
371.74000000000	0.80069469253112	-20.496664394545
372.35000000000	0.79735541636629	-24.729350782748
372.96000000000	0.79376523200237	-28.963565360236
373.57000000000	0.78991392097091	-33.198481050085
374.18000000000	0.78579120226835	-37.433169709248
374.79000000000	0.78138670821753	-41.666586026076
375.40000000000	0.77668997509621	-45.897546397629
376.01000000000	0.77169046467598	-50.124701775561
376.62000000000	0.76637763851641	-54.346503520497
377.23000000000	0.76074111322694	-58.561161494627
377.84000000000	0.75477093152004	-62.766594014636
378.45000000000	0.74845798997288	-66.960369961634
379.06000000000	0.74179466876481	-71.139644392087
379.67000000000	0.73477570944751	-75.301090505970
380.28000000000	0.72739938155633	-79.440832876898
380.89000000000	0.71966896451501	-83.554389448199
381.50000000000	0.71159454448371	-87.636632850519
382.11000000000	0.70319508367535	-91.681784816846
382.72000000000	0.69450066105204	-95.683460312170
383.33000000000	0.68555471049969	-99.634779588209
383.94000000000	0.67641600327741	-103.52856554053
384.55000000000	0.66716005033489	-107.35763914533
385.16000000000	0.65787955829275	-111.11521622798
385.77000000000	0.64868358540234	-114.79539394519
386.38000000000	0.63969513239754	-118.39369614520
386.99000000000	0.63104707666493	-121.90762616323
387.60000000000	0.62287660284463	-125.33715855476
388.21000000000	0.61531855776999	-128.68509380302
388.82000000000	0.60849839936089	-131.95720739477
389.43000000000	0.60252554906110	-135.16214884712
390.04000000000	0.59748794552362	-138.31108417810
390.65000000000	0.59344842327723	-141.41711862877
391.26000000000	0.59044324166777	-144.49457394053
391.87000000000	0.58848274086227	-147.55821605761
392.48000000000	0.58755378833564	-150.62252963717
393.09000000000	0.58762346801219	-153.70111682943
393.70000000000	0.58864338481698	-156.80626662212
394.31000000000	0.59055399981576	-159.94870709054
394.92000000000	0.59328853774640	-163.13752432537
395.53000000000	0.59677617244881	-166.38021327128
396.14000000000	0.60094435565008	-169.68281797714
396.75000000000	0.60572028466422	-173.05011981367
397.36000000000	0.61103159450863	-176.48583881013
397.97000000000	0.61680641141047	-179.99282223906
398.58000000000	0.62297292603445	176.42679640483
399.19000000000	0.62945864636695	172.77147716958
399.80000000000	0.63618948134586	169.04019537768
400.41000000000	0.64308879382569	165.23240437231
401.02000000000	0.65007654926336	161.34803554704
401.63000000000	0.65706867598231	157.38753011713
402.24000000000	0.66397674335767	153.35189586213
402.85000000000	0.67070805363482	149.24278113745
403.46000000000	0.67716622835055	145.06255766020
404.07000000000	0.68325234825256	140.81440288670
404.68000000000	0.68886667352728	136.50237229481
405.29000000000	0.69391092775196	132.13145172855
405.90000000000	0.69829107525226	127.70758036801
406.51000000000	0.70192046136162	123.23763606530
407.12000000000	0.70472312544626	118.72937688433
407.73000000000	0.70663704697252	114.19133571817
408.34000000000	0.70761705580227	109.63266867880
408.95000000000	0.70763713836940	105.06296221661
409.56000000000	0.70669190650580	100.49200812736
410.17000000000	0.70479706446558	95.929559161991
410.78000000000	0.70198880437411	91.385080321448
411.39000000000	0.69832216740174	86.867511700904
412.00000000000	0.69386851096469	82.385057794839
412.61000000000	0.68871230540123	77.945015610813
413.22000000000	0.68294753519680	73.553650136778
413.83000000000	0.67667399459218	69.216121199784
414.44000000000	0.66999374673654	64.936461140245
415.05000000000	0.66300796648927	60.717598565986
415.66000000000	0.65581432002764	56.561420194988
416.27000000000	0.64850496112527	52.468860739914
416.88000000000	0.64116515485126	48.440010048765
417.49000000000	0.63387248256594	44.474227230629
418.10000000000	0.62669654231594	40.570253034725
418.71000000000	0.61969903755080	36.726313961320
419.32000000000	0.61293414298708	32.940214050139
419.93000000000	0.60644904571269	29.209412620753
420.54000000000	0.60028457736503	25.531088127051
421.15000000000	0.59447587448882	21.902189570848
421.76000000000	0.58905302489458	18.319477580111
422.37000000000	0.58404167527941	14.779557393137
422.98000000000	0.57946358829750	11.278905763763
423.59000000000	0.57533714564537	7.8138933875883
424.20000000000	0.57167779829891	4.3808039904027
424.81000000000	0.56849846688128	0.97585081489853
425.42000000000	0.56580989530640	-2.4048090613034
426.03000000000	0.56362096018108	-5.7650623346305
426.64000000000	0.56193893752859	-9.1088288638768
427.25000000000	0.56076972753588	-12.440052712370
427.86000000000	0.56011803735300	-15.762694695045
428.47000000000	0.55998752150006	-19.080726234567
429.08000000000	0.56038087911988	-22.398124275754
429.69000000000	0.56129990709370	-25.718866954055
430.30000000000	0.56274550786496	-29.046929665769
430.91000000000	0.56471765066367	-32.386281145852
431.52000000000	0.56721528468829	-35.740879121909
432.13000000000	0.57023620270622	-39.114665078076
432.74000000000	0.57377685352526	-42.511557627398
433.35000000000	0.57783210193872	-45.935443954351
433.96000000000	0.58239493515323	-49.390168749835
434.57000000000	0.58745611549260	-52.879520020695
435.18000000000	0.59300378048131	-56.407211118533
435.79000000000	0.59902299341289	-59.976858305392
436.40000000000	0.60549525037807	-63.591953167724
437.01000000000	0.61239795362966	-67.255829219801
437.62000000000	0.61970386621806	-70.971622122704
438.23000000000	0.62738056907392	-74.742223107102
438.84000000000	0.63538994902730	-78.570225450945
439.45000000000	0.64368775429928	-82.457864247992
440.06000000000	0.65222326215840	-86.406950224517
440.67000000000	0.66093911073674	-90.418799021325
441.28000000000	0.66977135212884	-94.494158139185
441.89000000000	0.67864978523270	-98.633134605135
442.50000000000	0.68749862257293	-102.83512728269
443.11000000000	0.69623753392930	-107.09876851835
443.72000000000	0.70478308984940	-111.42188036306
444.33000000000	0.71305059988160	-115.80145079168
444.94000000000	0.72095630486321	-120.23363503626
445.55000000000	0.72841984276514	-124.71378625684
446.16000000000	0.73536686803459	-129.23651826811
446.77000000000	0.74173167091880	-133.79580098348
447.38000000000	0.74745962203615	-138.38508679422
447.99000000000	0.75250926368408	-142.99746352505
448.60000000000	0.75685388596455	-147.62582721752
449.21000000000	0.76048246242682	-152.26306611263
449.82000000000	0.76339987262982	-156.90224610742
450.43000000000	0.76562640081345	-161.53678780812
451.04000000000	0.76719656202598	-166.16062611326
451.65000000000	0.76815736094612	-170.76834490427
452.26000000000	0.76856612744850	-175.35528164953
452.87000000000	0.76848809290739	-179.91759922702
453.48000000000	0.76799387197146	175.54767527791
454.09000000000	0.76715699875516	171.04264290738
454.70000000000	0.76605163878951	166.56855276711
455.31000000000	0.76475056417441	162.12584497215
455.92000000000	0.76332344438262	157.71421152067
456.53000000000	0.76183547320775	153.33267001821
457.14000000000	0.76034632610546	148.97964555692
457.75000000000	0.75890942289152	144.65305668518
458.36000000000	0.75757145849007	140.35040216298
458.97000000000	0.75637215841089	136.06884598642
459.58000000000	0.75534421466881	131.80529890769
460.19000000000	0.75451336059434	127.55649532693
460.80000000000	0.75389854814749	123.31906496445
461.41000000000	0.75351219785226	119.08959912708
462.02000000000	0.75336049847058	114.86471166492
462.63000000000	0.75344374041497	110.64109488560
463.24000000000	0.75375667323383	106.41557076565
463.85000000000	0.75428888301642	102.18513779063
464.46000000000	0.75502519007940	97.947013681652
465.07000000000	0.75594607069924	93.698674144143
465.68000000000	0.75702810886789	89.437887619684
466.29000000000	0.75824448501978	85.162745850857
466.90000000000	0.75956550837768	80.871689898846
467.51000000000	0.76095919799889	76.563531101090
468.12000000000	0.76239191483299	72.237466339240
468.73000000000	0.76382904326197	67.893086922651
469.34000000000	0.76523571591823	63.530380394408
469.95000000000	0.76657757040381	59.149724646625
470.56000000000	0.76782152131404	54.751873894879
471.17000000000	0.76893652622817	50.337936306183
471.78000000000	0.76989432063354	45.909343389798
472.39000000000	0.77067009463484	41.467811625014
473.00000000000	0.77124308418886	37.015297185581
473.61000000000	0.77159705173433	32.553944991283
474.22000000000	0.77172063543518	28.086033635428
474.83000000000	0.77160755252214	23.613917967486
475.44000000000	0.77125664983234	19.139971225900
476.05000000000	0.77067180284292	14.666528603174
476.66000000000	0.76986167241850	10.195833985937
477.27000000000	0.76883933534086	5.7299913652988
477.88000000000	0.76762180983749	1.2709220897580
478.49000000000	0.76622950042760	-3.1796712257097
479.10000000000	0.76468558742736	-7.6203336742299
479.71000000000	0.76301538565345	-12.049879769559
480.32000000000	0.76124569468774	-16.467408004741
480.93000000000	0.75940416004946	-20.872308551389
481.54000000000	0.75751866126138	-25.264264518990
482.15000000000	0.75561673947230	-29.643247271724
482.76000000000	0.75372507423407	-34.009506349058
483.37000000000	0.75186901631174	-38.363554570825
483.98000000000	0.75007218102180	-42.706148936609
484.59000000000	0.74835610449734	-47.038267955836
485.20000000000	0.74673996342935	-51.361086066304
485.81000000000	0.74524035721890	-55.675945810215
486.42000000000	0.74387115011217	-59.984328433351
487.03000000000	0.74264336981503	-64.287823552452
487.64000000000	0.74156515832315	-68.588098498559
488.25000000000	0.74064177026836	-72.886867893398
488.86000000000	0.73987561395088	-77.185863956477
489.47000000000	0.73926633035110	-81.486807978080
490.08000000000	0.73881090572271	-85.791383332371
490.69000000000	0.73850381377891	-90.101210348885
491.30000000000	0.73833718390990	-94.417823311531
491.91000000000	0.73830099224046	-98.742649811810
492.52000000000	0.73838327259097	-103.07699264577
493.13000000000	0.73857034450833	-107.42201440981
493.74000000000	0.73884705547004	-111.77872491539
494.35000000000	0.73919703414876	-116.14797150424
494.96000000000	0.73960295128811	-120.53043229987
495.57000000000	0.74004678434249	-124.92661237730
496.18000000000	0.74051008164577	-129.33684276858
496.79000000000	0.74097422158432	-133.76128214805
497.40000000000	0.74142066215096	-138.19992096088
498.01000000000	0.74183117643786	-142.65258767417
498.62000000000	0.74218807016943	-147.11895674916
499.23000000000	0.74247437833435	-151.59855786308
499.84000000000	0.74267403937457	-156.09078585983
500.45000000000	0.74277204720000	-160.59491089198
501.06000000000	0.74275458343651	-165.11008824422
501.67000000000	0.74260913461777	-169.63536741388
502.28000000000	0.74232460124646	-174.16970017802
502.89000000000	0.74189140742579	-178.71194760742
503.50000000000	0.74130162064611	176.73911370517
504.11000000000	0.74054909077230	172.18478556262
504.72000000000	0.73962961476099	167.62644118001
505.33000000000	0.73854112867196	163.06551586585
505.94000000000	0.73728392091458	158.50349364888
506.55000000000	0.73586085067084	153.94188805787
507.16000000000	0.73427754409326	149.38221552145
507.77000000000	0.73254253014994	144.82596055224
508.38000000000	0.73066727073480	140.27453306059
508.99000000000	0.72866603921303	135.72921973837
509.60000000000	0.72655561086844	131.19113324266
510.21000000000	0.72435474907862	126.66116451414
510.82000000000	0.72208350095700	122.13994451530
511.43000000000	0.71976235077030	117.62782153540
512.04000000000	0.71741131100316	113.12485875559
512.65000000000	0.71504905106448	108.63085411625
513.26000000000	0.71269216591311	104.14538117259
513.87000000000	0.71035466944083	99.667846317511
514.48000000000	0.70804776389532	95.197555269302
515.09000000000	0.70577989493793	90.733780613762
515.70000000000	0.70355706174439	86.275822602993
516.31000000000	0.70138332105014	81.823057089332
516.92000000000	0.69926140775068	77.374966881840
517.53000000000	0.69719339291642	72.931155354956
518.14000000000	0.69518130988857	68.491343324036
518.75000000000	0.69322769585855	64.055351747149
519.36000000000	0.69133601535639	59.623073647579
519.97000000000	0.68951094979756	55.194438866756
520.58000000000	0.68775855154356	50.769375024729
521.19000000000	0.68608627104108	46.347767571098
521.80000000000	0.68450287169620	41.929421211454
522.41000000000	0.68301824991761	37.514024404401
523.02000000000	0.68164317810515	33.101118107681
523.63000000000	0.68038898710456	28.690069537790
524.24000000000	0.67926720248527	24.280051400774
524.85000000000	0.67828914644470	19.870026843962
525.46000000000	0.67746551457028	15.458740254896
526.07000000000	0.67680593435893	11.044713979147
526.68000000000	0.67631851049190	6.6262510281795
527.29000000000	0.67600936054113	2.2014438884684
527.90000000000	0.67588214417349	-2.2318103896830
528.51000000000	0.67593758914707	-6.6757885644831
529.12000000000	0.67617301857273	-11.132912699199
529.73000000000	0.67658188613853	-15.605714390009
530.34000000000	0.67715332930378	-20.096791321316
530.95000000000	0.67787175482048	-24.608755804758
531.56000000000	0.67871647614721	-29.144175116711
532.17000000000	0.67966142801981	-33.705503731099
532.78000000000	0.68067498904177	-38.295007966845
533.39000000000	0.68171994783251	-42.914684134980
534.00000000000	0.68275365100743	-47.566171960385
