#
#"Frequency / GHz"	"S1,4 [Mag]"	"S1,4 [Pha in deg.]"
#---------------------------------------------------
290.00000000000	0.60449303445884	163.41078681448
290.61000000000	0.60607261709294	160.36728759925
291.22000000000	0.60816686856392	157.30880497989
291.83000000000	0.61076371031845	154.23033786128
292.44000000000	0.61384502664695	151.12710596421
293.05000000000	0.61738688081838	147.99464766318
293.66000000000	0.62135983135289	144.82890235750
294.27000000000	0.62572931665006	141.62627658925
294.88000000000	0.63045608411932	138.38369459936
295.49000000000	0.63549664993898	135.09863497544
296.10000000000	0.64080378569035	131.76915548228
296.71000000000	0.64632703681133	128.39390814721
297.32000000000	0.65201328397843	124.97214631881
297.93000000000	0.65780736149725	121.50372486250
298.54000000000	0.66365274630957	117.98909403247
299.15000000000	0.66949232740374	114.42928697432
299.76000000000	0.67526925864151	110.82590035360
300.37000000000	0.68092788895656	107.18106732837
300.98000000000	0.68641475344993	103.49742202102
301.59000000000	0.69167959822536	99.778054802564
302.20000000000	0.69667640212594	96.026458063490
302.81000000000	0.70136435112409	92.246462671116
303.42000000000	0.70570871711822	88.442165945998
304.03000000000	0.70968159313134	84.617852658939
304.64000000000	0.71326244175818	80.777911177708
305.25000000000	0.71643842296535	76.926747403980
305.86000000000	0.71920448022649	73.068699473175
306.47000000000	0.72156317918195	69.207956300352
307.08000000000	0.72352430893443	65.348482927657
307.69000000000	0.72510427103354	61.493955274965
308.30000000000	0.72632529363608	57.647706352581
308.91000000000	0.72721451711814	53.812685320047
309.52000000000	0.72780300194518	49.991430035688
310.13000000000	0.72812470982257	46.186053005864
310.74000000000	0.72821550549746	42.398239972255
311.35000000000	0.72811221987868	38.629259817036
311.96000000000	0.72785180640507	34.879984050126
312.57000000000	0.72747061288146	31.150913882600
313.18000000000	0.72700378127878	27.442212783438
313.79000000000	0.72648477903477	23.753742448130
314.40000000000	0.72594505773835	20.085100254344
315.01000000000	0.72541382904634	16.435656514169
315.62000000000	0.72491794337203	12.804590125810
316.23000000000	0.72448185424550	9.1909215522370
316.84000000000	0.72412765010570	5.5935423857581
317.45000000000	0.72387513540417	2.0112410750325
318.06000000000	0.72374194400836	-1.5572753214180
318.67000000000	0.72374366971249	-5.1133632451094
319.28000000000	0.72389400093852	-8.6584283031869
319.89000000000	0.72420484920893	-12.193914035539
320.50000000000	0.72468646350939	-15.721293233047
321.11000000000	0.72534752508281	-19.242061206720
321.72000000000	0.72619521940555	-22.757730397914
322.33000000000	0.72723528402566	-26.269825743097
322.94000000000	0.72847203256659	-29.779880255039
323.55000000000	0.72990835652080	-33.289430348016
324.16000000000	0.73154570750133	-36.800010511065
324.77000000000	0.73338406342819	-40.313147014987
325.38000000000	0.73542188274572	-43.830350421531
325.99000000000	0.73765605124554	-47.353106744678
326.60000000000	0.74008182644601	-50.882867192594
327.21000000000	0.74269278478317	-54.421036494623
327.82000000000	0.74548077711295	-57.968959890741
328.43000000000	0.74843589821038	-61.527908931905
329.04000000000	0.75154647606148	-65.099066309151
329.65000000000	0.75479908674867	-68.683509997218
330.26000000000	0.75817860059092	-72.282197064489
330.87000000000	0.76166826486993	-75.895947564056
331.48000000000	0.76524982790415	-79.525428978924
332.09000000000	0.76890370838129	-83.171141745405
332.70000000000	0.77260921268838	-86.833406419729
333.31000000000	0.77634480146910	-90.512353080637
333.92000000000	0.78008840478643	-94.207913571963
334.53000000000	0.78381778310052	-97.919817180738
335.14000000000	0.78751092883625	-101.64759031542
335.75000000000	0.79114650069121	-105.39056069314
336.36000000000	0.79470428012815	-109.14786646288
336.97000000000	0.79816563683392	-112.91847058217
337.58000000000	0.80151398745074	-116.70118062845
338.19000000000	0.80473522974480	-120.49467406231
338.80000000000	0.80781813271810	-124.29752876947
339.41000000000	0.81075466213234	-128.10825849116
340.02000000000	0.81354022063059	-131.92535250885
340.63000000000	0.81617378224617	-135.74731867802
341.24000000000	0.81865790272348	-139.57272860764
341.85000000000	0.82099858991761	-143.40026345992
342.46000000000	0.82320502280703	-147.22875850634
343.07000000000	0.82528911360645	-151.05724424127
343.68000000000	0.82726491536918	-154.88498155536
344.29000000000	0.82914788750811	-158.71148826190
344.90000000000	0.83095404381034	-162.53655422360
345.51000000000	0.83269902133018	-166.36024253523
346.12000000000	0.83439712296010	-170.18287477089
346.73000000000	0.83606039967626	-174.00499927407
347.34000000000	0.83769784786397	-177.82734286734
347.95000000000	0.83931479972331	178.34925189004
348.56000000000	0.84091257768242	174.52389985646
349.17000000000	0.84248846523055	170.69575106411
349.78000000000	0.84403601690099	166.86406600976
350.39000000000	0.84554569226795	163.02828101884
351.00000000000	0.84700575842637	159.18805691928
351.61000000000	0.84840336984778	155.34330605821
352.22000000000	0.84972571101485	151.49419534161
352.83000000000	0.85096108095291	147.64112600700
353.44000000000	0.85209981108225	143.78469368278
354.05000000000	0.85313493588396	139.92563442673
354.66000000000	0.85406257351597	136.06476353801
355.27000000000	0.85488201302933	132.20291392383
355.88000000000	0.85559553910619	128.34087984098
356.49000000000	0.85620804939724	124.47937025013
357.10000000000	0.85672653165810	120.61897419984
357.71000000000	0.85715946877424	116.76013893393
358.32000000000	0.85751623207225	112.90316002145
358.93000000000	0.85780651045843	109.04818185241
359.54000000000	0.85803980816457	105.19520632800
360.15000000000	0.85822502974433	101.34410743300
360.76000000000	0.85837015903997	97.494649510430
361.37000000000	0.85848202983698	93.646507357808
361.98000000000	0.85856617989098	89.799286641847
362.59000000000	0.85862677657775	85.952543516431
363.20000000000	0.85866660102750	82.105802684665
363.81000000000	0.85868707766515	78.258573447403
364.42000000000	0.85868833706592	74.410363520027
365.03000000000	0.85866930152700	70.560690578622
365.64000000000	0.85862778444902	66.709091623396
366.25000000000	0.85856059631203	62.855130330705
366.86000000000	0.85846365159944	58.998402615016
367.47000000000	0.85833207241107	55.138540647301
368.08000000000	0.85816028569060	51.275215583881
368.69000000000	0.85794211197972	47.408139255293
369.30000000000	0.85767084441760	43.537065052729
369.91000000000	0.85733931735286	39.661788232961
370.52000000000	0.85693996444995	35.782145843777
371.13000000000	0.85646486657512	31.898016452279
371.74000000000	0.85590579005697	28.009319839068
372.35000000000	0.85525421615016	24.116016803184
372.96000000000	0.85450136270174	20.218109206345
373.57000000000	0.85363819913930	16.315640371060
374.18000000000	0.85265545598167	12.408695936201
374.79000000000	0.85154363012783	8.4974052660771
375.40000000000	0.85029298722205	4.5819435055326
376.01000000000	0.84889356244036	0.66253437457198
376.62000000000	0.84733516111469	-3.2605461980715
377.23000000000	0.84560736073272	-7.1869654919480
377.84000000000	0.84369951605107	-11.116328335785
378.45000000000	0.84160076937456	-15.048170224755
379.06000000000	0.83930006852244	-18.981949042290
379.67000000000	0.83678619566838	-22.917035189008
380.28000000000	0.83404781114896	-26.852699897873
380.89000000000	0.83107351752639	-30.788101498855
381.50000000000	0.82785195069564	-34.722269395822
382.11000000000	0.82437190665254	-38.654085544351
382.72000000000	0.82062251465602	-42.582263286295
383.33000000000	0.81659346983212	-46.505323524960
383.94000000000	0.81227534059057	-50.421568437914
384.55000000000	0.80765996823731	-54.329053251818
385.16000000000	0.80274097736838	-58.225557076989
385.77000000000	0.79751441530388	-62.108554449521
386.38000000000	0.79197953599843	-65.975190077867
386.99000000000	0.78613973734372	-69.822260340629
387.60000000000	0.78000364920776	-73.646206296295
388.21000000000	0.77358635163979	-77.443124245092
388.82000000000	0.76691067754611	-81.208801040655
389.43000000000	0.76000852194555	-84.938782084667
390.04000000000	0.75292204251409	-88.628479830763
390.65000000000	0.74570459789205	-92.273329161108
391.26000000000	0.73842123853914	-95.868992658958
391.87000000000	0.73114855000815	-99.411613215382
392.48000000000	0.72397366208081	-102.89810359878
393.09000000000	0.71699228959302	-106.32645325196
393.70000000000	0.71030576668795	-109.69602316744
394.31000000000	0.70401717026605	-113.00779252171
394.92000000000	0.69822678211415	-116.26451849746
395.53000000000	0.69302728210347	-119.47077563387
396.14000000000	0.68849916068497	-122.63285392137
396.75000000000	0.68470685643843	-125.75851425600
397.36000000000	0.68169604921738	-128.85662200905
397.97000000000	0.67949238143036	-131.93669913032
398.58000000000	0.67810167264191	-135.00844741423
399.19000000000	0.67751148289864	-138.08129736344
399.80000000000	0.67769371328542	-141.16402858601
400.41000000000	0.67860783808534	-144.26449180954
401.02000000000	0.68020434916875	-147.38944392359
401.63000000000	0.68242804698243	-150.54449041511
402.24000000000	0.68522090842905	-153.73411720262
402.85000000000	0.68852437215378	-156.96178736517
403.46000000000	0.69228098362876	-160.23007710893
404.07000000000	0.69643542222110	-163.54082804310
404.68000000000	0.70093498534133	-166.89529769761
405.29000000000	0.70572963261187	-170.29429569796
405.90000000000	0.71077170121935	-173.73829808058
406.51000000000	0.71601539874933	-177.22753634128
407.12000000000	0.72141616776811	179.23793919693
407.73000000000	0.72693000173109	175.65822014448
408.34000000000	0.73251277739805	172.03352223658
408.95000000000	0.73811965637742	168.36418569549
409.56000000000	0.74370459820257	164.65069031191
410.17000000000	0.74922001924466	160.89368180141
410.78000000000	0.75461662513889	157.09400608402
411.39000000000	0.75984343837985	153.25274823851
412.00000000000	0.76484803641903	149.37127296968
412.61000000000	0.76957700815449	145.45126349363
413.22000000000	0.77397662752904	141.49475581832
413.83000000000	0.77799373176411	137.50416551185
414.44000000000	0.78157677868992	133.48230425516
415.05000000000	0.78467704333004	129.43238381819
415.66000000000	0.78724989952222	125.35800561395
416.27000000000	0.78925611953378	121.26313469698
416.88000000000	0.79066311528351	117.15205797164
417.49000000000	0.79144604086027	113.02932742343
418.10000000000	0.79158867914532	108.89969030622
418.71000000000	0.79108404638458	104.76800930114
419.32000000000	0.78993466733763	100.63917657913
419.93000000000	0.78815249871109	96.518026313290
420.54000000000	0.78575850729917	92.409250385558
421.15000000000	0.78278193802387	88.317321744424
421.76000000000	0.77925933195823	84.246429094971
422.37000000000	0.77523337187025	80.200425417581
422.98000000000	0.77075164039846	76.182791373067
423.59000000000	0.76586537290204	72.196613171179
424.20000000000	0.76062827446037	68.244573185173
424.81000000000	0.75509545126157	64.328950684171
425.42000000000	0.74932248459531	60.451629647698
426.03000000000	0.74336465487582	56.614110737733
426.64000000000	0.73727630682135	52.817525041808
427.25000000000	0.73111033693047	49.062647996608
427.86000000000	0.72491778090141	45.349912755458
428.47000000000	0.71874748041205	41.679422996060
429.08000000000	0.71264581366562	38.050965658764
429.69000000000	0.70665648011600	34.464024319040
430.30000000000	0.70082033504189	30.917793859314
430.91000000000	0.69517527309285	27.411196889688
431.52000000000	0.68975616128936	23.942902066012
432.13000000000	0.68459482151906	20.511344150669
432.74000000000	0.67972006094564	17.114745415804
433.35000000000	0.67515774662337	13.751137831372
433.96000000000	0.67093091856783	10.418385416744
434.57000000000	0.66705993395556	7.1142061520911
435.18000000000	0.66356263419387	3.8361929229103
435.79000000000	0.66045452632675	0.58183308369719
436.40000000000	0.65774897052778	-2.6514736460540
437.01000000000	0.65545736612318	-5.8663991150229
437.62000000000	0.65358932952472	-9.0656725509712
438.23000000000	0.65215285848997	-12.252068202974
438.84000000000	0.65115447815219	-15.428394693219
439.45000000000	0.65059936519843	-18.597485899834
440.06000000000	0.65049144737701	-21.762193151360
440.67000000000	0.65083347616930	-24.925378485164
441.28000000000	0.65162707096993	-28.089908702806
441.89000000000	0.65287273350409	-31.258649941817
442.50000000000	0.65456983150314	-34.434462472841
443.11000000000	0.65671655089882	-37.620195421511
443.72000000000	0.65930981602864	-40.818681104485
444.33000000000	0.66234517762058	-44.032728658309
444.94000000000	0.66581666870017	-47.265116628625
445.55000000000	0.66971662909417	-50.518584177160
446.16000000000	0.67403549995125	-53.795820557361
446.77000000000	0.67876159071883	-57.099452509961
447.38000000000	0.68388082235407	-60.432029241519
447.99000000000	0.68937645224341	-63.796004677259
448.60000000000	0.69522878837178	-67.193716729906
449.21000000000	0.70141490270194	-70.627363404184
449.82000000000	0.70790835643602	-74.098975667330
450.43000000000	0.71467895271870	-77.610387163047
451.04000000000	0.72169253522555	-81.163201031515
451.65000000000	0.72891085370805	-84.758754320397
452.26000000000	0.73629151961232	-88.398080726256
452.87000000000	0.74378807595971	-92.081872683281
453.48000000000	0.75135020533632	-95.810444102165
454.09000000000	0.75892409763959	-99.583695336508
454.70000000000	0.76645299478083	-103.40108219202
455.31000000000	0.77387792257182	-107.26159096557
455.92000000000	0.78113861048083	-111.16372157491
456.53000000000	0.78817458807519	-115.10548078527
457.14000000000	0.79492643339499	-119.08438732990
457.75000000000	0.80133713424146	-123.09749034396
458.36000000000	0.80735350978362	-127.14140198505
458.97000000000	0.81292762859036	-131.21234441968
459.58000000000	0.81801815181143	-135.30621055507
460.19000000000	0.82259152815916	-139.41863705165
460.80000000000	0.82662297147472	-143.54508733884
461.41000000000	0.83009716216413	-147.68094165731
462.02000000000	0.83300862997687	-151.82159063948
462.63000000000	0.83536179598095	-155.96252867464
463.24000000000	0.83717067404800	-160.09944331590
463.85000000000	0.83845825428741	-164.22829727230
464.46000000000	0.83925561032575	-168.34540005629
465.07000000000	0.83960078722269	-172.44746706528
465.68000000000	0.83953753595557	-176.53166468912
466.29000000000	0.83911396341898	179.40435912871
466.90000000000	0.83838116418297	175.36245866427
467.51000000000	0.83739189286213	171.34398763676
468.12000000000	0.83619932527355	167.34980847852
468.73000000000	0.83485594413211	163.38031189649
469.34000000000	0.83341257227139	159.43544478659
469.95000000000	0.83191756445200	155.51474452954
470.56000000000	0.83041615854843	151.61737778580
471.17000000000	0.82894997875915	147.74218208732
471.78000000000	0.82755667761474	143.88770876197
472.39000000000	0.82626969987431	140.05226599301
473.00000000000	0.82511814964249	136.23396108693
473.61000000000	0.82412674186160	132.43074127939
474.22000000000	0.82331582035784	128.64043263768
474.83000000000	0.82270142648674	124.86077681193
475.44000000000	0.82229540481186	121.08946554176
476.05000000000	0.82210553489952	117.32417294055
476.66000000000	0.82213568101552	113.56258565731
477.27000000000	0.82238595411539	109.80243106020
477.88000000000	0.82285288291867	106.04150359930
478.49000000000	0.82352959297677	102.27768949536
479.10000000000	0.82440599443189	98.508989869034
479.71000000000	0.82546898058685	94.733542377682
480.32000000000	0.82670264043805	90.949641368321
480.93000000000	0.82808848894626	87.155756490164
481.54000000000	0.82960571902052	83.350549643983
482.15000000000	0.83123147896115	79.532890082191
482.76000000000	0.83294117845404	75.701867418255
483.37000000000	0.83470882514967	71.856802261197
483.98000000000	0.83650739243538	67.997254164597
484.59000000000	0.83830921728365	64.123026573008
485.20000000000	0.84008642512078	60.234168464198
485.81000000000	0.84181137662051	56.330972423859
486.42000000000	0.84345712931546	52.413968949416
487.03000000000	0.84499790506948	48.483916858749
487.64000000000	0.84640955289618	44.541789773969
488.25000000000	0.84766999545691	40.588758755019
488.86000000000	0.84875964691179	36.626171267698
489.47000000000	0.84966178968923	32.655526780922
490.08000000000	0.85036289821145	28.678449394891
490.69000000000	0.85085289866968	24.696658001978
491.30000000000	0.85112535556650	20.711934573149
491.91000000000	0.85117757789524	16.726091241581
492.52000000000	0.85101064044646	12.740936918190
493.13000000000	0.85062931872141	8.7582442163815
493.74000000000	0.85004193915669	4.7797174799296
494.35000000000	0.84926014964268	0.80696269330209
494.96000000000	0.84829861843678	-3.1585399956725
495.57000000000	0.84717467230435	-7.1154604959210
496.18000000000	0.84590788685448	-11.062639208763
496.79000000000	0.84451964341065	-14.999103295142
497.40000000000	0.84303266727831	-18.924078549651
498.01000000000	0.84147056193884	-22.836996819742
498.62000000000	0.83985735259241	-26.737499064071
499.23000000000	0.83821705074147	-30.625434281553
499.84000000000	0.83657324934477	-34.500854654885
500.45000000000	0.83494875568812	-38.364007334572
501.06000000000	0.83336526671069	-42.215323340854
501.67000000000	0.83184308926291	-46.055404082965
502.28000000000	0.83040090577914	-49.885005991654
502.89000000000	0.82905558420592	-53.705023736926
503.50000000000	0.82782202977021	-57.516472463995
504.11000000000	0.82671307530185	-61.320469431940
504.72000000000	0.82573940631137	-65.118215386416
505.33000000000	0.82490951682243	-68.910975943964
505.94000000000	0.82422969200950	-72.700063214169
506.55000000000	0.82370401393717	-76.486817839193
507.16000000000	0.82333438707839	-80.272591589460
507.77000000000	0.82312058075377	-84.058730619917
508.38000000000	0.82306028613713	-87.846559463320
508.99000000000	0.82314918597788	-91.637365814902
509.60000000000	0.82338103567158	-95.432386145560
510.21000000000	0.82374775474773	-99.232792167401
510.82000000000	0.82423952822934	-103.03967816490
511.43000000000	0.82484491765134	-106.85404919585
512.04000000000	0.82555098181173	-110.67681015808
512.65000000000	0.82634340758658	-114.50875570955
513.26000000000	0.82720665138809	-118.35056102163
513.87000000000	0.82812409211222	-122.20277333816
514.48000000000	0.82907819673597	-126.06580430881
515.09000000000	0.83005070010830	-129.93992306702
515.70000000000	0.83102280094374	-133.82525003486
516.31000000000	0.83197537656039	-137.72175146639
516.92000000000	0.83288921944983	-141.62923479312
517.53000000000	0.83374529921396	-145.54734491911
518.14000000000	0.83452505356689	-149.47556173423
518.75000000000	0.83521071170735	-153.41319927530
519.36000000000	0.83578565206895	-157.35940716155
519.97000000000	0.83623479385709	-161.31317514715
520.58000000000	0.83654501751836	-165.27334183769
521.19000000000	0.83670560315820	-169.23860875888
521.80000000000	0.83670866805476	-173.20756097705
522.41000000000	0.83654957547261	-177.17869527387
523.02000000000	0.83622727829210	178.84954359656
523.63000000000	0.83574455455373	174.87871882919
524.24000000000	0.83510809031479	170.91035100343
524.85000000000	0.83432837055070	166.94586361044
525.46000000000	0.83341935259675	162.98652844776
526.07000000000	0.83239791843639	159.03341553039
526.68000000000	0.83128312933655	155.08735243745
527.29000000000	0.83009533413096	151.14889749170
527.90000000000	0.82885520499086	147.21832983678
528.51000000000	0.82758278649505	143.29565752883
529.12000000000	0.82629664218008	139.38064256297
529.73000000000	0.82501316780687	135.47283975742
530.34000000000	0.82374611585850	131.57164500812
530.95000000000	0.82250634689959	127.67634782952
531.56000000000	0.82130179630239	123.78618332432
532.17000000000	0.82013762407845	119.90037960159
532.78000000000	0.81901650347992	116.01819790647
533.39000000000	0.81793900064878	112.13896404069
534.00000000000	0.81690400116321	108.26209080677
