#
#"Frequency / GHz"	"S1,4 [Mag]"	"S1,4 [Pha in deg.]"
#---------------------------------------------------
290.00000000000	0.47691662724830	-134.46036751282
290.61000000000	0.47880533616270	-139.37572222160
291.22000000000	0.48049906302532	-144.29023054521
291.83000000000	0.48199999921016	-149.20122359810
292.44000000000	0.48331367586386	-154.10609202798
293.05000000000	0.48444867753093	-159.00235397465
293.66000000000	0.48541603745722	-163.88769693333
294.27000000000	0.48622844651941	-168.75995983846
294.88000000000	0.48689973692323	-173.61702993194
295.49000000000	0.48744538545024	-178.45668601375
296.10000000000	0.48788443118917	176.72348528580
296.71000000000	0.48824193515229	171.92595198932
297.32000000000	0.48855011656442	167.15288714270
297.93000000000	0.48884721081888	162.40581537066
298.54000000000	0.48917506782084	157.68544855180
299.15000000000	0.48957715643679	152.99170908287
299.76000000000	0.49009768911795	148.32381477892
300.37000000000	0.49078156968281	143.68032276461
300.98000000000	0.49167458276999	139.05910160625
301.59000000000	0.49282340108943	134.45724523752
302.20000000000	0.49427518824836	129.87095491612
302.81000000000	0.49607669015056	125.29541551984
303.42000000000	0.49827276154653	120.72469169779
304.03000000000	0.50090431464354	116.15167027643
304.64000000000	0.50400573321365	111.56807614054
305.25000000000	0.50760187727454	106.96458678722
305.86000000000	0.51170490348300	102.33106350176
306.47000000000	0.51631122588341	97.656903533592
307.08000000000	0.52139901286258	92.931498674475
307.69000000000	0.52692662937610	88.144764517427
308.30000000000	0.53283236719928	83.287686535105
308.91000000000	0.53903565748556	78.352819490680
309.52000000000	0.54543975179616	73.334679454859
310.13000000000	0.55193563475116	68.229983279262
310.74000000000	0.55840674769615	63.037715235632
311.35000000000	0.56473400353908	57.759028298767
311.96000000000	0.57080057876439	52.397011311402
312.57000000000	0.57649606945105	46.956367930745
313.18000000000	0.58171975896808	41.443056945401
313.79000000000	0.58638292028378	35.863937596319
314.40000000000	0.59041022464144	30.226451350721
315.01000000000	0.59374042518456	24.538357164277
315.62000000000	0.59632652182196	18.807523985481
316.23000000000	0.59813560026626	13.041774205059
316.84000000000	0.59914849058953	7.2487657209514
317.45000000000	0.59935932794070	1.4358980634407
318.06000000000	0.59877503695789	-4.3897711859590
318.67000000000	0.59741471367844	-10.221610649229
319.28000000000	0.59530885064395	-16.053507211421
319.89000000000	0.59249834360944	-21.879968955217
320.50000000000	0.58903322900651	-27.696238357062
321.11000000000	0.58497112463737	-33.498412213158
321.72000000000	0.58037537526953	-39.283562796353
322.33000000000	0.57531293320396	-45.049853736085
322.94000000000	0.56985202605382	-50.796643920444
323.55000000000	0.56405967648680	-56.524573088168
324.16000000000	0.55799914057438	-62.235623387584
324.77000000000	0.55172732408104	-67.933151687114
325.38000000000	0.54529222296708	-73.621887509676
325.99000000000	0.53873042049717	-79.307890875039
326.60000000000	0.53206466450301	-84.998462909015
327.21000000000	0.52530155090503	-90.701999787653
327.82000000000	0.51842936005374	-96.427777578708
328.43000000000	0.51141613697109	-102.18565222906
329.04000000000	0.50420817994121	-107.98565609553
329.65000000000	0.49672920534232	-113.83747129762
330.26000000000	0.48888058382344	-119.74976266379
330.87000000000	0.48054317407466	-125.72936163233
331.48000000000	0.47158137509155	-131.78030991688
332.09000000000	0.46185001040758	-137.90280023461
332.70000000000	0.45120446249330	-144.09209089753
333.31000000000	0.43951401093292	-150.33751713525
333.92000000000	0.42667756734876	-156.62176377729
334.53000000000	0.41264003903127	-162.92058405774
335.14000000000	0.39740665753651	-169.20312818601
335.75000000000	0.38105218069920	-175.43297010300
336.36000000000	0.36372229831024	178.43020339486
336.97000000000	0.34562596207381	172.42842112728
337.58000000000	0.32701939909534	166.60307108295
338.19000000000	0.30818455719020	160.99270331634
338.80000000000	0.28940592159194	155.63129358375
339.41000000000	0.27094963558878	150.54715344497
340.02000000000	0.25304778909367	145.76252723440
340.63000000000	0.23588914746902	141.29378829311
341.24000000000	0.21961608934220	137.15206653947
341.85000000000	0.20432650992662	133.34411323595
342.46000000000	0.19007902929512	129.87322461214
343.07000000000	0.17689990334794	126.74008440314
343.68000000000	0.16479036144319	123.94342884526
344.29000000000	0.15373350033286	121.48047467938
344.90000000000	0.14370022730223	119.34707438643
345.51000000000	0.13465401696092	117.53756493425
346.12000000000	0.12655445754713	116.04423724822
346.73000000000	0.11935990394152	114.85625926245
347.34000000000	0.11303041754371	113.95795979807
347.95000000000	0.10753263056044	113.32766395708
348.56000000000	0.10284264992414	112.94009994939
349.17000000000	0.098938212466576	112.76954835695
349.78000000000	0.095791014243932	112.78616814874
350.39000000000	0.093371226762347	112.95192966970
351.00000000000	0.091652295985414	113.22206618670
351.61000000000	0.090610959928980	113.54820288943
352.22000000000	0.090226100408588	113.88098820407
352.83000000000	0.090478180596738	114.17233778398
353.44000000000	0.091349305162470	114.37739144772
354.05000000000	0.092823654366223	114.45604461794
354.66000000000	0.094888086306675	114.37390544864
355.27000000000	0.097532751932070	114.10262989454
355.88000000000	0.10075160367014	113.61969851813
356.49000000000	0.10454270878430	112.90777452845
357.10000000000	0.10890830273809	111.95381092075
357.71000000000	0.11385453232334	110.74806431027
358.32000000000	0.11939084098686	109.28314085232
358.93000000000	0.12552894068336	107.55316143276
359.54000000000	0.13228129962737	105.55309985369
360.15000000000	0.13965906001231	103.27832404332
360.76000000000	0.14766929325397	100.72435703409
361.37000000000	0.15631151486817	97.886869531021
361.98000000000	0.16557343244794	94.761915696335
362.59000000000	0.17542600686698	91.346423494343
363.20000000000	0.18581808682954	87.638944727495
363.81000000000	0.19667113966647	83.640651432766
364.42000000000	0.20787493214973	79.356529394918
365.03000000000	0.21928535250967	74.796664893747
365.64000000000	0.23072577988011	69.977453669100
366.25000000000	0.24199330890148	64.922498238353
366.86000000000	0.25287053315819	59.662928408696
367.47000000000	0.26314241698624	54.236911239016
368.08000000000	0.27261624976014	48.688230873045
368.69000000000	0.28114130498898	43.064005894173
369.30000000000	0.28862428074934	37.411823404093
369.91000000000	0.29503730352419	31.776731090129
370.52000000000	0.30041709076861	26.198580251277
371.13000000000	0.30485607922026	20.710152963895
371.74000000000	0.30848809033095	15.336459409970
372.35000000000	0.31147274747355	10.096218936711
372.96000000000	0.31401661487727	5.0145065928243
373.57000000000	0.31679517744942	-0.023133870376757
374.18000000000	0.31848516340926	-4.8847382378660
374.79000000000	0.32048196269461	-9.6000073046314
375.40000000000	0.32263871683415	-14.208685798848
376.01000000000	0.32502529641158	-18.723005470851
376.62000000000	0.32771820092340	-23.157399771658
377.23000000000	0.33078255340382	-27.527089432454
377.84000000000	0.33427113004973	-31.847283584374
378.45000000000	0.33822601256219	-36.132736305456
379.06000000000	0.34268070624940	-40.397516296410
379.67000000000	0.34766212818519	-44.654929705573
380.28000000000	0.35319219586023	-48.917555288846
380.89000000000	0.35928885430349	-53.197353041171
381.50000000000	0.36596644435381	-57.505806440116
382.11000000000	0.37323537371894	-61.854059703576
382.72000000000	0.38110110955925	-66.253016585315
383.33000000000	0.38956256177327	-70.713375694491
383.94000000000	0.39860996577804	-75.245587366795
384.55000000000	0.40822240342613	-79.859726682853
385.16000000000	0.41836512769888	-84.565284918485
385.77000000000	0.42898689047275	-89.370887288693
386.38000000000	0.44001751979130	-94.283949139652
386.99000000000	0.45136605309096	-99.310287057975
387.60000000000	0.46291979489962	-104.45370681631
388.21000000000	0.47454471005653	-109.71559704890
388.82000000000	0.48608755633009	-115.09456540445
389.43000000000	0.49738007082479	-120.58616089082
390.04000000000	0.50824532865321	-126.18272952053
390.65000000000	0.51850608904658	-131.87344716714
391.26000000000	0.52799456917269	-137.64456138391
391.87000000000	0.53656271617650	-143.47985232421
392.48000000000	0.54409178770053	-149.36129418208
393.09000000000	0.55049999960902	-155.26986804324
393.70000000000	0.55574720891338	-161.18645180547
394.31000000000	0.55983604380530	-167.09269956441
394.92000000000	0.56280946632338	-172.97182533680
395.53000000000	0.56474530801363	-178.80922357636
396.14000000000	0.56574871822334	175.40711318464
396.75000000000	0.56594363117448	169.68638820007
397.36000000000	0.56546429231235	164.03498726351
397.97000000000	0.56444765003799	158.45662097593
398.58000000000	0.56302710729951	152.95257651966
399.19000000000	0.56132782327863	147.52203335236
399.80000000000	0.55946351484854	142.16240401757
400.41000000000	0.55753455353332	136.86967127913
401.02000000000	0.55562708273920	131.63870331719
401.63000000000	0.55381287325889	126.46353792027
402.24000000000	0.55214966898949	121.33763352079
402.85000000000	0.55068182825685	116.25408934212
403.46000000000	0.54944112345762	111.20583912644
404.07000000000	0.54844761333797	106.18582341511
404.68000000000	0.54771054361154	101.18714473140
405.29000000000	0.54722926175364	96.203208783141
405.90000000000	0.54699415163215	91.227853350720
406.51000000000	0.54698760485638	86.255465116219
407.12000000000	0.54718505006322	81.281083472170
407.73000000000	0.54755606018871	76.300489399148
408.34000000000	0.54806555206849	71.310276855600
408.95000000000	0.54867508321882	66.307903803772
409.56000000000	0.54934423813785	61.291720024547
410.17000000000	0.55003208197309	56.260969272716
410.78000000000	0.55069864438205	51.215764098527
411.39000000000	0.55130638272199	46.157032785883
412.00000000000	0.55182156339706	41.086439261161
412.61000000000	0.55221549517599	36.006278390151
413.22000000000	0.55246554994882	30.919350646471
413.83000000000	0.55255591522514	25.828821528459
414.44000000000	0.55247803814989	20.738072156779
415.05000000000	0.55223074134947	15.650548069535
415.66000000000	0.55182001412291	10.569613266963
416.27000000000	0.55125850552332	5.4984160315633
416.88000000000	0.55056476592994	0.43977201848730
417.49000000000	0.54976229850332	-4.6039313067271
418.10000000000	0.54887849003797	-9.6308064508384
418.71000000000	0.54794349182539	-14.639513159539
419.32000000000	0.54698911586210	-19.629282014203
419.93000000000	0.54604780147706	-24.599916544202
420.54000000000	0.54515169400115	-29.551777053125
421.15000000000	0.54433186226710	-34.485750009654
421.76000000000	0.54361766706441	-39.403207151932
422.37000000000	0.54303627929319	-44.305958432123
422.98000000000	0.54261233511784	-49.196202630000
423.59000000000	0.54236770617804	-54.076478934103
424.20000000000	0.54232135589409	-58.949622058503
424.81000000000	0.54248924807618	-63.818722553225
425.42000000000	0.54288427150165	-68.687092891516
426.03000000000	0.54351614420507	-73.558238700973
426.64000000000	0.54439126457824	-78.435833200588
427.25000000000	0.54551248386858	-83.323691617641
427.86000000000	0.54687878713781	-88.225741263160
428.47000000000	0.54848488758917	-93.145982293552
429.08000000000	0.55032076176732	-98.088434276979
429.69000000000	0.55237117828570	-103.05706479666
430.30000000000	0.55461529636535	-108.05569861722
430.91000000000	0.55702642688229	-113.08790932790
431.52000000000	0.55957205155701	-118.15689943436
432.13000000000	0.56221418040383	-123.26537883263
432.74000000000	0.56491009208436	-128.41545448533
433.35000000000	0.56761345002820	-133.60854500099
433.96000000000	0.57027572812567	-138.84533213281
434.57000000000	0.57284782607610	-144.12575702977
435.18000000000	0.57528171879450	-149.44906314442
435.79000000000	0.57753197544223	-154.81388127954
436.40000000000	0.57955700370660	-160.21834671748
437.01000000000	0.58131991870047	-165.66023481191
437.62000000000	0.58278899277025	-171.13710034945
438.23000000000	0.58393770025072	-176.64640729245
438.84000000000	0.58474441914256	177.81436141578
439.45000000000	0.58519188318374	172.24762030816
440.06000000000	0.58526649084394	166.65562633836
440.67000000000	0.58495757423069	161.04045095287
441.28000000000	0.58425671488546	155.40397521565
441.89000000000	0.58315716982495	149.74790218010
442.50000000000	0.58165344439620	144.07377990254
443.11000000000	0.57974102203959	138.38302847634
443.72000000000	0.57741623729969	132.67696506724
444.33000000000	0.57467625892344	126.95682199205
444.94000000000	0.57151913557718	121.22375427499
445.55000000000	0.56794384819080	115.47883473462
446.16000000000	0.56395031060070	109.72303640809
446.77000000000	0.55953926431383	103.95720392308
447.38000000000	0.55471202413280	98.182017196845
447.99000000000	0.54947004950219	92.397952515589
448.60000000000	0.54381434263277	86.605247666107
449.21000000000	0.53774470998023	80.803879719235
449.82000000000	0.53125896715858	74.993567518358
450.43000000000	0.52435220042082	69.173818641862
451.04000000000	0.51701614388140	63.344054891666
451.65000000000	0.50923843163285	57.503857787464
452.26000000000	0.50100102657938	51.653315941794
452.87000000000	0.49227776330081	45.793292874759
453.48000000000	0.48303360487956	39.925447042386
454.09000000000	0.47322831700442	34.052288644635
454.70000000000	0.46282218487730	28.177667318160
455.31000000000	0.45178032970888	22.307506348837
455.92000000000	0.44007618759873	16.450412987825
456.53000000000	0.42769576620917	10.618073800427
457.14000000000	0.41464278343610	4.8254698068030
457.75000000000	0.40094383974064	-0.90909250560882
458.36000000000	0.38665260770698	-6.5641726186762
458.97000000000	0.37185213174616	-12.115642092113
459.58000000000	0.35665457187960	-17.537387875715
460.19000000000	0.34119810072722	-22.802237917682
460.80000000000	0.32564113590780	-27.883040239989
461.41000000000	0.31015456073795	-32.753805187713
462.02000000000	0.29491293034341	-37.390817085609
462.63000000000	0.28008578525785	-41.773636293281
463.24000000000	0.26583007817999	-45.885940305873
463.85000000000	0.25228441583265	-49.716184120493
464.46000000000	0.23956542901162	-53.258086198708
465.07000000000	0.22776621709558	-56.510960279754
465.68000000000	0.21695654490420	-59.479912722092
466.29000000000	0.20718433046018	-62.175912253469
466.90000000000	0.19847794205778	-64.615719901307
467.51000000000	0.19084888796085	-66.821649400969
468.12000000000	0.18429459082498	-68.821120576788
468.73000000000	0.17880105525791	-70.645975987245
469.34000000000	0.17434533525474	-72.331556137637
469.95000000000	0.17089777506597	-73.915566631125
470.56000000000	0.16842402967914	-75.436812118091
471.17000000000	0.16688687511611	-76.933904387341
471.78000000000	0.16624780475574	-78.444064654858
472.39000000000	0.16646838770938	-80.002128248774
473.00000000000	0.16751134852761	-81.639826558652
473.61000000000	0.16934131944310	-83.385375791624
474.22000000000	0.17192521753176	-85.263356567882
474.83000000000	0.17523220693401	-87.294832453252
475.44000000000	0.17923321697541	-89.497634196955
476.05000000000	0.18389999816317	-91.886729774776
476.66000000000	0.18920370957524	-94.474604990741
477.27000000000	0.19511304592656	-97.271590811314
477.88000000000	0.20159193593531	-100.28608782392
478.49000000000	0.20859688247944	-103.52465281206
479.10000000000	0.21607407645048	-106.99192676801
479.71000000000	0.22395650472221	-110.69039850714
480.32000000000	0.23216138637554	-114.62001500432
480.93000000000	0.24058839667477	-118.77767020253
481.54000000000	0.24911924465754	-123.15662882043
482.15000000000	0.25761920792984	-127.74596881685
482.76000000000	0.26594113536311	-132.53015064275
483.37000000000	0.27393215118910	-137.48883490810
483.98000000000	0.28144282143789	-142.59706265995
484.59000000000	0.28833794326267	-147.82587634048
485.20000000000	0.29450754777655	-153.14339423026
485.81000000000	0.29987637944808	-158.51626754444
486.42000000000	0.30441020607739	-163.91136861293
487.03000000000	0.30811786206783	-169.29750565095
487.64000000000	0.31104878918286	-174.64695239981
488.25000000000	0.31328673569368	-179.93662163288
488.86000000000	0.31494092459416	174.85121434479
489.47000000000	0.31613624350255	169.72866970798
490.08000000000	0.31700385325114	164.70240158992
490.69000000000	0.31767319902541	159.77407889215
491.30000000000	0.31826591825046	154.94105259791
491.91000000000	0.31889171737205	150.19712670199
492.52000000000	0.31964600781571	145.53335109484
493.13000000000	0.32060895655929	140.93878268120
493.74000000000	0.32184558578927	136.40118220422
494.35000000000	0.32340660234135	131.90762876682
494.96000000000	0.32532970844762	127.44504189261
495.57000000000	0.32764121035532	123.00060406579
496.18000000000	0.33035778434261	118.56207783047
496.79000000000	0.33348827700970	114.11801345522
497.40000000000	0.33703541493793	109.65784773698
498.01000000000	0.34099729046274	105.17190215054
498.62000000000	0.34536848927444	100.65129810218
499.23000000000	0.35014074212343	96.087816253163
499.84000000000	0.35530302032908	91.473733229586
500.45000000000	0.36084104879110	86.801670752958
501.06000000000	0.36673627152658	82.064488890531
501.67000000000	0.37296436353048	77.255247696993
502.28000000000	0.37949343238977	72.367251801565
502.89000000000	0.38628209192168	67.394182360772
503.50000000000	0.39327762034324	62.330311559835
504.11000000000	0.40041444010048	57.170787000565
504.72000000000	0.40761317575590	51.911966676013
505.33000000000	0.41478055520597	46.551779332265
505.94000000000	0.42181040697804	41.090079565027
506.55000000000	0.42858595743693	35.528962253790
507.16000000000	0.43498353216960	29.872997873721
507.77000000000	0.44087760923224	24.129350410456
508.38000000000	0.44614696754367	18.307744754564
508.99000000000	0.45068145136203	12.420261745748
509.60000000000	0.45438868039199	6.4809563345645
510.21000000000	0.45719993152537	0.50531565954363
510.82000000000	0.45907444829297	-5.4904045353490
511.43000000000	0.46000161212721	-11.489909451363
512.04000000000	0.46000070690149	-17.477596295523
512.65000000000	0.45911835846558	-23.439224246373
513.26000000000	0.45742405095668	-29.362472395558
513.87000000000	0.45500433954356	-35.237352684358
514.48000000000	0.45195645484450	-41.056464078708
515.09000000000	0.44838192577144	-46.815090425537
515.70000000000	0.44438066869343	-52.511156165888
516.31000000000	0.44004576833280	-58.145062984151
516.92000000000	0.43545899735464	-63.719437458281
517.53000000000	0.43068704538084	-69.238820305168
518.14000000000	0.42577842323421	-74.709315526669
518.75000000000	0.42076098935037	-80.138195418847
519.36000000000	0.41563999067944	-85.533436862962
519.97000000000	0.41039648769513	-90.903152068665
520.58000000000	0.40498610469731	-96.254867709172
521.19000000000	0.39933821821731	-101.59459209649
521.80000000000	0.39335595876388	-106.92558813150
522.41000000000	0.38691777178304	-112.24674367343
523.02000000000	0.37988179992095	-117.55040979334
523.63000000000	0.37209502691602	-122.81958041719
524.24000000000	0.36340988768754	-128.02435391479
524.85000000000	0.35371160840486	-133.11782270050
525.46000000000	0.34295921215329	-138.03200033444
526.07000000000	0.33124070554992	-142.67526136137
526.68000000000	0.31883696612015	-146.93409256238
527.29000000000	0.30627872577696	-150.68339880624
527.90000000000	0.29436961936689	-153.80995039029
528.51000000000	0.28414374331117	-156.25047019473
529.12000000000	0.27673893518746	-158.03719886918
529.73000000000	0.27319872757598	-159.33144181109
530.34000000000	0.27425164060716	-160.41921988632
530.95000000000	0.28013497109341	-161.65559635450
531.56000000000	0.29052179766814	-163.37519644780
532.17000000000	0.30457726636095	-165.81149776081
532.78000000000	0.32112586106558	-169.06059974387
533.39000000000	0.33887686360351	-173.09398033418
534.00000000000	0.35664256918645	-177.80018398195
