#
#"Frequency / GHz"	"S1,1 [Mag]"	"S1,1 [Pha in deg.]"	"Ref.Imp. [Mag]"	"Ref.Imp. [Pha in deg.]"
#---------------------------------------------------------------------------------------------
400.00000000000	0.43924480397537	132.82408392883	376.73031346177	0.0000000000000
566.66666666667	0.18818358583692	-43.035069239517	376.73031346177	0.0000000000000
733.33333333333	0.83779240591657	38.635724356856	376.73031346177	0.0000000000000
900.00000000000	0.83238622156441	59.664588042522	376.73031346177	0.0000000000000
1066.6666666667	0.37558482731403	65.643003933703	376.73031346177	0.0000000000000
1233.3333333333	0.30617747072630	-31.260589625409	376.73031346177	0.0000000000000
1400.0000000000	0.21696992283206	3.8436780015756	376.73031346177	0.0000000000000
1566.6666666667	0.54191990590569	-115.62019002973	376.73031346177	0.0000000000000
1733.3333333333	0.68398733755433	-87.343289774052	376.73031346177	0.0000000000000
1900.0000000000	0.61292050296317	-77.332778191484	376.73031346177	0.0000000000000
#
#"Frequency / GHz"	"S2,1 [Mag]"	"S2,1 [Pha in deg.]"
#---------------------------------------------------
400.00000000000	0.032123650148064	136.17841114803
566.66666666667	0.071823720512605	-105.36598660788
733.33333333333	0.043645041907696	14.357566784680
900.00000000000	0.061703649394212	65.740793206968
1066.6666666667	0.019001645645237	124.41616187941
1233.3333333333	0.0086370035620989	21.099509126167
1400.0000000000	0.074649655821787	114.03454355625
1566.6666666667	0.072620133089237	-160.13507335862
1733.3333333333	0.11022238723184	-110.18842033968
1900.0000000000	0.10333242601488	-29.735351913915
#
#"Frequency / GHz"	"S3,1 [Mag]"	"S3,1 [Pha in deg.]"
#---------------------------------------------------
400.00000000000	0.022639466718986	-11.725058864065
566.66666666667	0.089639076144957	-47.431921127511
733.33333333333	0.026832050564133	-147.79481452350
900.00000000000	0.051111667640953	18.700959639969
1066.6666666667	0.031105485024403	159.72022939980
1233.3333333333	0.032271088668954	-112.23275059068
1400.0000000000	0.011907737617479	-42.159405314807
1566.6666666667	0.012013474948512	-46.302604967461
1733.3333333333	0.0086459205114756	-57.360445069901
1900.0000000000	0.0025593680374256	-66.955520071720
#
#"Frequency / GHz"	"S4,1 [Mag]"	"S4,1 [Pha in deg.]"
#---------------------------------------------------
400.00000000000	0.73201847983194	148.04699682695
566.66666666667	0.74472303889440	-111.23123800359
733.33333333333	0.30062281766285	-12.472675017530
900.00000000000	0.32244200658439	111.65402308740
1066.6666666667	0.63751476943753	172.28371751713
1233.3333333333	0.61133818339051	-138.13457833682
1400.0000000000	0.51701668998033	-102.40628921116
1566.6666666667	0.39015883999341	-65.900391411352
1733.3333333333	0.23756123967677	-76.066123238928
1900.0000000000	0.15343260954757	-27.733677366690
#
#"Frequency / GHz"	"S1,2 [Mag]"	"S1,2 [Pha in deg.]"
#---------------------------------------------------
400.00000000000	0.032123654941943	136.19033222479
566.66666666667	0.071587207711313	-105.36406483763
733.33333333333	0.043013735433155	13.884084590651
900.00000000000	0.061965005018344	66.716147636620
1066.6666666667	0.018026278784692	128.14056232506
1233.3333333333	0.0090879625737502	18.352426170330
1400.0000000000	0.074799657366483	113.95959777241
1566.6666666667	0.072667672588675	-160.19115700109
1733.3333333333	0.11029383188271	-110.37882812347
1900.0000000000	0.10332492823419	-29.643496544910
#
#"Frequency / GHz"	"S2,2 [Mag]"	"S2,2 [Pha in deg.]"	"Ref.Imp. [Mag]"	"Ref.Imp. [Pha in deg.]"
#---------------------------------------------------------------------------------------------
400.00000000000	0.30676177851586	82.601749555100	376.73031346177	0.0000000000000
566.66666666667	0.28426006664158	172.23575071257	376.73031346177	0.0000000000000
733.33333333333	0.31438822882005	24.004122234433	376.73031346177	0.0000000000000
900.00000000000	0.31497795033316	65.445848379168	376.73031346177	0.0000000000000
1066.6666666667	0.40523711282000	27.196610882217	376.73031346177	0.0000000000000
1233.3333333333	0.22439660082694	-41.995002962618	376.73031346177	0.0000000000000
1400.0000000000	0.53023239883680	-36.007657264507	376.73031346177	0.0000000000000
1566.6666666667	0.48845876777396	-23.871527716676	376.73031346177	0.0000000000000
1733.3333333333	0.49756335052205	-13.813760246614	376.73031346177	0.0000000000000
1900.0000000000	0.30541032569515	-127.77787565037	376.73031346177	0.0000000000000
#
#"Frequency / GHz"	"S3,2 [Mag]"	"S3,2 [Pha in deg.]"
#---------------------------------------------------
400.00000000000	0.84622826417408	-15.124573960884
566.66666666667	0.81310674802185	-154.92040946367
733.33333333333	0.80032261864013	46.704207499447
900.00000000000	0.79059060763252	-164.31779782273
1066.6666666667	0.71642409707065	-46.291122518044
1233.3333333333	0.70766103960789	36.075408013965
1400.0000000000	0.51469460659615	70.415103192873
1566.6666666667	0.40726505201572	65.589003557670
1733.3333333333	0.19210108091442	57.869060138287
1900.0000000000	0.25244083223562	75.732620417359
#
#"Frequency / GHz"	"S4,2 [Mag]"	"S4,2 [Pha in deg.]"
#---------------------------------------------------
400.00000000000	0.041512092251051	-0.21068494319541
566.66666666667	0.11702197608113	-29.891177608651
733.33333333333	0.051270180162875	152.45579806320
900.00000000000	0.053727176947240	-33.859216923769
1066.6666666667	0.025161804644211	137.14186648271
1233.3333333333	0.031183186059460	-170.44819890269
1400.0000000000	0.026104537753035	-114.37244182831
1566.6666666667	0.022349403491289	-118.98672804406
1733.3333333333	0.028150288298295	-169.75570962821
1900.0000000000	0.046260652305512	178.34358861892
#
#"Frequency / GHz"	"S1,3 [Mag]"	"S1,3 [Pha in deg.]"
#---------------------------------------------------
400.00000000000	0.022636739915094	-11.727463485494
566.66666666667	0.089548883268566	-47.389914037454
733.33333333333	0.026759896381136	-147.18142956812
900.00000000000	0.051138529874576	19.012997523817
1066.6666666667	0.031741075355167	161.18621976669
1233.3333333333	0.032166375241875	-112.19831041621
1400.0000000000	0.012029227093318	-39.212854566202
1566.6666666667	0.012027701643925	-44.836555971076
1733.3333333333	0.0085917908403239	-56.807292549364
1900.0000000000	0.0024824150085851	-68.374540443326
#
#"Frequency / GHz"	"S2,3 [Mag]"	"S2,3 [Pha in deg.]"
#---------------------------------------------------
400.00000000000	0.84623407087156	-15.124498764266
566.66666666667	0.81316014476438	-154.94220813195
733.33333333333	0.80094765127688	46.657706570054
900.00000000000	0.79028268129040	-164.30188402776
1066.6666666667	0.71688321672481	-46.236371174681
1233.3333333333	0.70762698111216	36.056867803028
1400.0000000000	0.51489621282520	70.386292140397
1566.6666666667	0.40737156469501	65.621482067244
1733.3333333333	0.19195967779511	57.814560208559
1900.0000000000	0.25253424669240	75.728087028455
#
#"Frequency / GHz"	"S3,3 [Mag]"	"S3,3 [Pha in deg.]"	"Ref.Imp. [Mag]"	"Ref.Imp. [Pha in deg.]"
#---------------------------------------------------------------------------------------------
400.00000000000	0.34759629368698	82.240066792421	376.73031346177	0.0000000000000
566.66666666667	0.39768011857656	58.779294477994	376.73031346177	0.0000000000000
733.33333333333	0.25361697845303	-77.704609780003	376.73031346177	0.0000000000000
900.00000000000	0.28463168922515	145.59111491330	376.73031346177	0.0000000000000
1066.6666666667	0.41357711373934	50.945703486777	376.73031346177	0.0000000000000
1233.3333333333	0.23752932669846	-26.958870308544	376.73031346177	0.0000000000000
1400.0000000000	0.48261675637517	-19.574748668021	376.73031346177	0.0000000000000
1566.6666666667	0.25229661741141	-71.565684595558	376.73031346177	0.0000000000000
1733.3333333333	0.62084995276745	-74.179344069989	376.73031346177	0.0000000000000
1900.0000000000	0.035011679178081	18.385957276571	376.73031346177	0.0000000000000
#
#"Frequency / GHz"	"S4,3 [Mag]"	"S4,3 [Pha in deg.]"
#---------------------------------------------------
400.00000000000	0.034980527729302	149.47310794649
566.66666666667	0.036591530741100	49.053778505885
733.33333333333	0.034831993315289	165.01019260647
900.00000000000	0.072510436604964	19.976431115554
1066.6666666667	0.014553444353251	-136.28917114925
1233.3333333333	0.016381593270654	17.032305365008
1400.0000000000	0.032487621405785	42.374085694022
1566.6666666667	0.047463377389296	-116.12655616231
1733.3333333333	0.014821740390641	2.9989970412558
1900.0000000000	0.085868403645798	-122.78363094861
#
#"Frequency / GHz"	"S1,4 [Mag]"	"S1,4 [Pha in deg.]"
#---------------------------------------------------
400.00000000000	0.73201441997510	148.04703780579
566.66666666667	0.74424656367879	-111.21554906172
733.33333333333	0.30078638482663	-12.563615285653
900.00000000000	0.32248043761279	111.67214542635
1066.6666666667	0.63635738640665	172.40732717746
1233.3333333333	0.61111935089997	-138.15511460029
1400.0000000000	0.51698900385902	-102.37002149585
1566.6666666667	0.39017118784006	-65.892601678556
1733.3333333333	0.23763596799849	-76.086171879105
1900.0000000000	0.15346680206015	-27.720928663447
#
#"Frequency / GHz"	"S2,4 [Mag]"	"S2,4 [Pha in deg.]"
#---------------------------------------------------
400.00000000000	0.041503903027120	-0.22557300060350
566.66666666667	0.11670996153702	-29.774846778757
733.33333333333	0.051824928096703	153.11297652419
900.00000000000	0.053937738035159	-33.980810065196
1066.6666666667	0.026210020121538	135.81082605462
1233.3333333333	0.030924685468045	-170.14622702730
1400.0000000000	0.026349221542724	-114.10751132301
1566.6666666667	0.022184670309150	-117.81932748483
1733.3333333333	0.028026380935231	-170.55584052664
1900.0000000000	0.046321768884051	178.30461075819
#
#"Frequency / GHz"	"S3,4 [Mag]"	"S3,4 [Pha in deg.]"
#---------------------------------------------------
400.00000000000	0.034984653392808	149.48493260126
566.66666666667	0.036659254650638	49.254273321751
733.33333333333	0.034925567318824	164.74738451538
900.00000000000	0.072796779585109	20.055486847747
1066.6666666667	0.014491852871458	-138.19588463806
1233.3333333333	0.016498927373695	17.469796583792
1400.0000000000	0.032580746986361	42.685773117718
1566.6666666667	0.047810202727984	-115.74088179922
1733.3333333333	0.014779828869908	4.7712712787863
1900.0000000000	0.085688970216873	-122.85473265216
#
#"Frequency / GHz"	"S4,4 [Mag]"	"S4,4 [Pha in deg.]"	"Ref.Imp. [Mag]"	"Ref.Imp. [Pha in deg.]"
#---------------------------------------------------------------------------------------------
400.00000000000	0.31080206569994	5.6778185410831	376.73031346177	0.0000000000000
566.66666666667	0.044419665907897	1.2275779289856	376.73031346177	0.0000000000000
733.33333333333	0.78707808789447	96.887207279042	376.73031346177	0.0000000000000
900.00000000000	0.74623713004261	-17.923052537939	376.73031346177	0.0000000000000
1066.6666666667	0.36098179817852	67.046022614471	376.73031346177	0.0000000000000
1233.3333333333	0.26843123602253	-18.972321087428	376.73031346177	0.0000000000000
1400.0000000000	0.42802495917761	-42.553022031204	376.73031346177	0.0000000000000
1566.6666666667	0.29769809416365	-147.92835895324	376.73031346177	0.0000000000000
1733.3333333333	0.24344914272732	-23.816572056413	376.73031346177	0.0000000000000
1900.0000000000	0.58115113543674	-165.57992133596	376.73031346177	0.0000000000000
