#
#"Frequency / GHz"	"S1,1 [Mag]"	"S1,1 [Pha in deg.]"	"Ref.Imp. [Mag]"	"Ref.Imp. [Pha in deg.]"
#---------------------------------------------------------------------------------------------
400.00000000000	0.45309416031615	136.50094187173	376.73031346177	0.0000000000000
401.50000000000	0.42286943744447	136.67394677478	376.73031346177	0.0000000000000
403.00000000000	0.39660247356376	138.71139816270	376.73031346177	0.0000000000000
404.50000000000	0.38026575253170	142.57862130744	376.73031346177	0.0000000000000
406.00000000000	0.37902470317811	147.50543363577	376.73031346177	0.0000000000000
407.50000000000	0.39442786244245	152.15566692298	376.73031346177	0.0000000000000
409.00000000000	0.42351719655070	155.41923886457	376.73031346177	0.0000000000000
410.50000000000	0.46090282577535	156.93991302940	376.73031346177	0.0000000000000
412.00000000000	0.50141827584414	156.94122783195	376.73031346177	0.0000000000000
413.50000000000	0.54140888150828	155.84135777128	376.73031346177	0.0000000000000
415.00000000000	0.57880455732499	154.02713108920	376.73031346177	0.0000000000000
416.50000000000	0.61271880329068	151.78672702581	376.73031346177	0.0000000000000
418.00000000000	0.64300846659535	149.31331013228	376.73031346177	0.0000000000000
419.50000000000	0.66993465720656	146.72734969433	376.73031346177	0.0000000000000
421.00000000000	0.69393528598552	144.09843816094	376.73031346177	0.0000000000000
422.50000000000	0.71548261777095	141.46215655861	376.73031346177	0.0000000000000
424.00000000000	0.73499828665185	138.83233819703	376.73031346177	0.0000000000000
425.50000000000	0.75280731316724	136.21003412330	376.73031346177	0.0000000000000
427.00000000000	0.76912128069361	133.59019223112	376.73031346177	0.0000000000000
428.50000000000	0.78404521802575	130.96652792595	376.73031346177	0.0000000000000
430.00000000000	0.79760270892669	128.33469581666	376.73031346177	0.0000000000000
431.50000000000	0.80977148785093	125.69380379105	376.73031346177	0.0000000000000
433.00000000000	0.82052029249747	123.04647361372	376.73031346177	0.0000000000000
434.50000000000	0.82983883020106	120.39785834764	376.73031346177	0.0000000000000
436.00000000000	0.83775594773810	117.75411832599	376.73031346177	0.0000000000000
437.50000000000	0.84434471253541	115.12080602802	376.73031346177	0.0000000000000
439.00000000000	0.84971579045888	112.50149130713	376.73031346177	0.0000000000000
440.50000000000	0.85400216940965	109.89684657591	376.73031346177	0.0000000000000
442.00000000000	0.85733943328021	107.30431301969	376.73031346177	0.0000000000000
443.50000000000	0.85984642200760	104.71834802869	376.73031346177	0.0000000000000
445.00000000000	0.86161056832167	102.13110887869	376.73031346177	0.0000000000000
446.50000000000	0.86268017214337	99.533318593699	376.73031346177	0.0000000000000
448.00000000000	0.86306315161612	96.915053056916	376.73031346177	0.0000000000000
449.50000000000	0.86272977050299	94.266284621851	376.73031346177	0.0000000000000
451.00000000000	0.86161628518553	91.577152022443	376.73031346177	0.0000000000000
452.50000000000	0.85962714131745	88.838030031932	376.73031346177	0.0000000000000
454.00000000000	0.85663450359543	86.039519046039	376.73031346177	0.0000000000000
455.50000000000	0.85247490636033	83.172480165818	376.73031346177	0.0000000000000
457.00000000000	0.84694349354927	80.228235070384	376.73031346177	0.0000000000000
458.50000000000	0.83978683686562	77.199054472507	376.73031346177	0.0000000000000
460.00000000000	0.83069598478549	74.079083421594	376.73031346177	0.0000000000000
461.50000000000	0.81930251831843	70.865892922139	376.73031346177	0.0000000000000
463.00000000000	0.80518221233327	67.562888051938	376.73031346177	0.0000000000000
464.50000000000	0.78787341548012	64.182803191392	376.73031346177	0.0000000000000
466.00000000000	0.76691981441733	60.752398472126	376.73031346177	0.0000000000000
467.50000000000	0.74194788959320	57.318116553399	376.73031346177	0.0000000000000
469.00000000000	0.71278434939978	53.951728823226	376.73031346177	0.0000000000000
470.50000000000	0.67960356470450	50.753864598079	376.73031346177	0.0000000000000
472.00000000000	0.64306854189716	47.852090212916	376.73031346177	0.0000000000000
473.50000000000	0.60440148806842	45.389774658498	376.73031346177	0.0000000000000
475.00000000000	0.56531572848490	43.503635882358	376.73031346177	0.0000000000000
476.50000000000	0.52778253305247	42.292345949018	376.73031346177	0.0000000000000
478.00000000000	0.49368549724187	41.784664826607	376.73031346177	0.0000000000000
479.50000000000	0.46448099538633	41.919629428209	376.73031346177	0.0000000000000
481.00000000000	0.44098312158833	42.549178315972	376.73031346177	0.0000000000000
482.50000000000	0.42332382683113	43.464480479293	376.73031346177	0.0000000000000
484.00000000000	0.41105578989791	44.436349877821	376.73031346177	0.0000000000000
485.50000000000	0.40332244788534	45.255151443162	376.73031346177	0.0000000000000
487.00000000000	0.39902992967283	45.759126622064	376.73031346177	0.0000000000000
488.50000000000	0.39699150283118	45.847516375793	376.73031346177	0.0000000000000
490.00000000000	0.39604286509842	45.480616339938	376.73031346177	0.0000000000000
491.50000000000	0.39513471247458	44.671260715091	376.73031346177	0.0000000000000
493.00000000000	0.39340597372855	43.472235752802	376.73031346177	0.0000000000000
494.50000000000	0.39023761026099	41.962895197509	376.73031346177	0.0000000000000
496.00000000000	0.38528574453225	40.236429224032	376.73031346177	0.0000000000000
497.50000000000	0.37849107668017	38.387417641955	376.73031346177	0.0000000000000
499.00000000000	0.37005637226638	36.498217708422	376.73031346177	0.0000000000000
500.50000000000	0.36037720717198	34.623294234219	376.73031346177	0.0000000000000
502.00000000000	0.34991134124484	32.773599405914	376.73031346177	0.0000000000000
503.50000000000	0.33899069934004	30.908086680313	376.73031346177	0.0000000000000
505.00000000000	0.32762050418789	28.942845440784	376.73031346177	0.0000000000000
506.50000000000	0.31535163587221	26.784523116763	376.73031346177	0.0000000000000
508.00000000000	0.30131310431568	24.383064597902	376.73031346177	0.0000000000000
509.50000000000	0.28443262012098	21.789619247944	376.73031346177	0.0000000000000
511.00000000000	0.26379593755622	19.210690228239	376.73031346177	0.0000000000000
512.50000000000	0.23906604166265	17.067185016157	376.73031346177	0.0000000000000
514.00000000000	0.21092318248612	16.080993133831	376.73031346177	0.0000000000000
515.50000000000	0.18156178024098	17.389176004038	376.73031346177	0.0000000000000
517.00000000000	0.15527489815979	22.500666709430	376.73031346177	0.0000000000000
518.50000000000	0.13856090794202	32.297002043357	376.73031346177	0.0000000000000
520.00000000000	0.13741390715624	44.534390660292	376.73031346177	0.0000000000000
521.50000000000	0.15171023204491	54.312058621544	376.73031346177	0.0000000000000
523.00000000000	0.17530233689241	59.233042145285	376.73031346177	0.0000000000000
524.50000000000	0.20172745632825	60.062486908381	376.73031346177	0.0000000000000
526.00000000000	0.22677929298127	58.233652322695	376.73031346177	0.0000000000000
527.50000000000	0.24817264809655	54.819567651465	376.73031346177	0.0000000000000
529.00000000000	0.26482308004205	50.498886525420	376.73031346177	0.0000000000000
530.50000000000	0.27636443190290	45.693534359478	376.73031346177	0.0000000000000
532.00000000000	0.28287006133035	40.676580705811	376.73031346177	0.0000000000000
533.50000000000	0.28469747581972	35.638444185066	376.73031346177	0.0000000000000
535.00000000000	0.28240556256227	30.725116871915	376.73031346177	0.0000000000000
536.50000000000	0.27671256273869	26.058541304426	376.73031346177	0.0000000000000
538.00000000000	0.26847141008202	21.744047341518	376.73031346177	0.0000000000000
539.50000000000	0.25864239546534	17.866427409640	376.73031346177	0.0000000000000
541.00000000000	0.24824508701099	14.475233712770	376.73031346177	0.0000000000000
542.50000000000	0.23827600541152	11.562054122990	376.73031346177	0.0000000000000
544.00000000000	0.22959069452833	9.0383585389924	376.73031346177	0.0000000000000
545.50000000000	0.22277113168523	6.7290740226348	376.73031346177	0.0000000000000
547.00000000000	0.21802378021266	4.3960130398961	376.73031346177	0.0000000000000
548.50000000000	0.21515811426367	1.7899938360328	376.73031346177	0.0000000000000
550.00000000000	0.21366400369945	-1.2900975781283	376.73031346177	0.0000000000000
551.50000000000	0.21285692817260	-4.9580890122750	376.73031346177	0.0000000000000
553.00000000000	0.21203339885560	-9.2317087228498	376.73031346177	0.0000000000000
554.50000000000	0.21059198206147	-14.045124174834	376.73031346177	0.0000000000000
556.00000000000	0.20810729209088	-19.267084507513	376.73031346177	0.0000000000000
557.50000000000	0.20436926955664	-24.713899868838	376.73031346177	0.0000000000000
559.00000000000	0.19941019361044	-30.154486232031	376.73031346177	0.0000000000000
560.50000000000	0.19354221253210	-35.311628429209	376.73031346177	0.0000000000000
562.00000000000	0.18742289250478	-39.871292090367	376.73031346177	0.0000000000000
563.50000000000	0.18214989106148	-43.523696984803	376.73031346177	0.0000000000000
565.00000000000	0.17934015542855	-46.071067354169	376.73031346177	0.0000000000000
566.50000000000	0.18106278764556	-47.612376053903	376.73031346177	0.0000000000000
568.00000000000	0.18944607845702	-48.696710893292	376.73031346177	0.0000000000000
569.50000000000	0.20597972908990	-50.210937666616	376.73031346177	0.0000000000000
571.00000000000	0.23094358818094	-52.963429045929	376.73031346177	0.0000000000000
572.50000000000	0.26339079292477	-57.330139111498	376.73031346177	0.0000000000000
574.00000000000	0.30157050117836	-63.242363624004	376.73031346177	0.0000000000000
575.50000000000	0.34340966395211	-70.380974216518	376.73031346177	0.0000000000000
577.00000000000	0.38687030126493	-78.357868094390	376.73031346177	0.0000000000000
578.50000000000	0.43018064107901	-86.815115908191	376.73031346177	0.0000000000000
580.00000000000	0.47196461793518	-95.462480429439	376.73031346177	0.0000000000000
581.50000000000	0.51128119836022	-104.08339956543	376.73031346177	0.0000000000000
583.00000000000	0.54759006723474	-112.52743881180	376.73031346177	0.0000000000000
584.50000000000	0.58067205353622	-120.69798286374	376.73031346177	0.0000000000000
586.00000000000	0.61053505529957	-128.53934517045	376.73031346177	0.0000000000000
587.50000000000	0.63732816202623	-136.02526550568	376.73031346177	0.0000000000000
589.00000000000	0.66127516620848	-143.14957026247	376.73031346177	0.0000000000000
590.50000000000	0.68262947955692	-149.91908657756	376.73031346177	0.0000000000000
592.00000000000	0.70164737923466	-156.34854138242	376.73031346177	0.0000000000000
593.50000000000	0.71857456051272	-162.45702483923	376.73031346177	0.0000000000000
595.00000000000	0.73364046507102	-168.26558587681	376.73031346177	0.0000000000000
596.50000000000	0.74705498009884	-173.79565464290	376.73031346177	0.0000000000000
598.00000000000	0.75900422935512	-179.06821441091	376.73031346177	0.0000000000000
599.50000000000	0.76964722768778	175.89631384429	376.73031346177	0.0000000000000
601.00000000000	0.77911746799332	171.07784667891	376.73031346177	0.0000000000000
602.50000000000	0.78752831347008	166.45658627705	376.73031346177	0.0000000000000
604.00000000000	0.79497705930122	162.01322775292	376.73031346177	0.0000000000000
605.50000000000	0.80154567031719	157.72917997917	376.73031346177	0.0000000000000
607.00000000000	0.80729972187270	153.58665049852	376.73031346177	0.0000000000000
608.50000000000	0.81228710461817	149.56861180234	376.73031346177	0.0000000000000
610.00000000000	0.81653690295964	145.65870910665	376.73031346177	0.0000000000000
611.50000000000	0.82005823691141	141.84114994593	376.73031346177	0.0000000000000
613.00000000000	0.82283875218208	138.10059559924	376.73031346177	0.0000000000000
614.50000000000	0.82484250842575	134.42206553158	376.73031346177	0.0000000000000
616.00000000000	0.82600708180412	130.79086425743	376.73031346177	0.0000000000000
617.50000000000	0.82623972275443	127.19254188138	376.73031346177	0.0000000000000
619.00000000000	0.82541239404417	123.61290490329	376.73031346177	0.0000000000000
620.50000000000	0.82335547459289	120.03810501570	376.73031346177	0.0000000000000
622.00000000000	0.81984988772253	116.45485504312	376.73031346177	0.0000000000000
623.50000000000	0.81461747531752	112.85085991247	376.73031346177	0.0000000000000
625.00000000000	0.80730974523501	109.21561701424	376.73031346177	0.0000000000000
626.50000000000	0.79749595522250	105.54184896216	376.73031346177	0.0000000000000
628.00000000000	0.78465336168472	101.82799999874	376.73031346177	0.0000000000000
629.50000000000	0.76816613738595	98.082468219920	376.73031346177	0.0000000000000
631.00000000000	0.74734594478017	94.330543118385	376.73031346177	0.0000000000000
632.50000000000	0.72149706960885	90.625257506574	376.73031346177	0.0000000000000
634.00000000000	0.69006073304864	87.063173644524	376.73031346177	0.0000000000000
635.50000000000	0.65287856423794	83.804571750906	376.73031346177	0.0000000000000
637.00000000000	0.61059365303742	81.092687941420	376.73031346177	0.0000000000000
638.50000000000	0.56512584357529	79.255752077179	376.73031346177	0.0000000000000
640.00000000000	0.51999386867609	78.658057815934	376.73031346177	0.0000000000000
641.50000000000	0.48006713327516	79.556986103959	376.73031346177	0.0000000000000
643.00000000000	0.45034657470886	81.874582985095	376.73031346177	0.0000000000000
644.50000000000	0.43397575749707	85.051140588336	376.73031346177	0.0000000000000
646.00000000000	0.43075723286713	88.229355290960	376.73031346177	0.0000000000000
647.50000000000	0.43752972712518	90.693161876590	376.73031346177	0.0000000000000
649.00000000000	0.45000222005173	92.138151481521	376.73031346177	0.0000000000000
650.50000000000	0.46440492373464	92.609680056799	376.73031346177	0.0000000000000
652.00000000000	0.47814017190507	92.314826290954	376.73031346177	0.0000000000000
653.50000000000	0.48971438945180	91.487636772556	376.73031346177	0.0000000000000
655.00000000000	0.49843725418394	90.333038689175	376.73031346177	0.0000000000000
656.50000000000	0.50414713471818	89.015806657415	376.73031346177	0.0000000000000
658.00000000000	0.50703152091206	87.665792915746	376.73031346177	0.0000000000000
659.50000000000	0.50753074488926	86.384964345783	376.73031346177	0.0000000000000
661.00000000000	0.50629094330728	85.250398187833	376.73031346177	0.0000000000000
662.50000000000	0.50412815554701	84.311403090977	376.73031346177	0.0000000000000
664.00000000000	0.50196599950062	83.581550777559	376.73031346177	0.0000000000000
665.50000000000	0.50071716889572	83.029560390464	376.73031346177	0.0000000000000
667.00000000000	0.50110365718982	82.576397153623	376.73031346177	0.0000000000000
668.50000000000	0.50345497580613	82.106548575398	376.73031346177	0.0000000000000
670.00000000000	0.50756681694306	81.495501941214	376.73031346177	0.0000000000000
671.50000000000	0.51270270643913	80.644552073286	376.73031346177	0.0000000000000
673.00000000000	0.51775727695595	79.507420500264	376.73031346177	0.0000000000000
674.50000000000	0.52151270677617	78.098278253992	376.73031346177	0.0000000000000
676.00000000000	0.52288161178502	76.483108414609	376.73031346177	0.0000000000000
677.50000000000	0.52106610059611	74.764682356610	376.73031346177	0.0000000000000
679.00000000000	0.51563257881972	73.070826569310	376.73031346177	0.0000000000000
680.50000000000	0.50655054373011	71.549727669358	376.73031346177	0.0000000000000
682.00000000000	0.49425030971586	70.369633400217	376.73031346177	0.0000000000000
683.50000000000	0.47972735292401	69.714803512244	376.73031346177	0.0000000000000
685.00000000000	0.46466787588826	69.764191599140	376.73031346177	0.0000000000000
686.50000000000	0.45149021143829	70.636718938889	376.73031346177	0.0000000000000
688.00000000000	0.44311198195436	72.300067941475	376.73031346177	0.0000000000000
689.50000000000	0.44227459939771	74.486091473206	376.73031346177	0.0000000000000
691.00000000000	0.45055326006160	76.708649433362	376.73031346177	0.0000000000000
692.50000000000	0.46763399308164	78.433992475395	376.73031346177	0.0000000000000
694.00000000000	0.49143548830250	79.293818329467	376.73031346177	0.0000000000000
695.50000000000	0.51897034063811	79.175558096450	376.73031346177	0.0000000000000
697.00000000000	0.54730029540048	78.166296101615	376.73031346177	0.0000000000000
698.50000000000	0.57410769393508	76.445735148652	376.73031346177	0.0000000000000
700.00000000000	0.59783677215390	74.204937869065	376.73031346177	0.0000000000000
701.50000000000	0.61757716613771	71.607274211505	376.73031346177	0.0000000000000
703.00000000000	0.63285997032514	68.778740618975	376.73031346177	0.0000000000000
704.50000000000	0.64346359414990	65.812700553605	376.73031346177	0.0000000000000
706.00000000000	0.64926636344239	62.780045684073	376.73031346177	0.0000000000000
707.50000000000	0.65015253965742	59.741065198014	376.73031346177	0.0000000000000
709.00000000000	0.64597156073744	56.758476373104	376.73031346177	0.0000000000000
710.50000000000	0.63655868510418	53.912680347860	376.73031346177	0.0000000000000
712.00000000000	0.62184450596689	51.320691625389	376.73031346177	0.0000000000000
713.50000000000	0.60210665904052	49.158375640138	376.73031346177	0.0000000000000
715.00000000000	0.57843067806632	47.677986794485	376.73031346177	0.0000000000000
716.50000000000	0.55338191041469	47.192476479558	376.73031346177	0.0000000000000
718.00000000000	0.53159983884050	47.964448919378	376.73031346177	0.0000000000000
719.50000000000	0.51943429081390	49.946844687920	376.73031346177	0.0000000000000
721.00000000000	0.52255736563288	52.521443825703	376.73031346177	0.0000000000000
722.50000000000	0.54239287235736	54.658104543626	376.73031346177	0.0000000000000
724.00000000000	0.57492022227373	55.541942044682	376.73031346177	0.0000000000000
725.50000000000	0.61337668372231	54.971566973024	376.73031346177	0.0000000000000
727.00000000000	0.65176961106717	53.198811005898	376.73031346177	0.0000000000000
728.50000000000	0.68643600776544	50.603749135491	376.73031346177	0.0000000000000
730.00000000000	0.71583830707289	47.510230057294	376.73031346177	0.0000000000000
731.50000000000	0.73977666737915	44.141018428503	376.73031346177	0.0000000000000
733.00000000000	0.75870603754537	40.632672628601	376.73031346177	0.0000000000000
734.50000000000	0.77331674595545	37.062012406777	376.73031346177	0.0000000000000
736.00000000000	0.78432116259744	33.467777777052	376.73031346177	0.0000000000000
737.50000000000	0.79235923376336	29.865215804337	376.73031346177	0.0000000000000
739.00000000000	0.79796359715556	26.255344004804	376.73031346177	0.0000000000000
740.50000000000	0.80155390013811	22.630831315883	376.73031346177	0.0000000000000
742.00000000000	0.80344599872150	18.979738051904	376.73031346177	0.0000000000000
743.50000000000	0.80386805507963	15.287805556525	376.73031346177	0.0000000000000
745.00000000000	0.80297820704707	11.539733420428	376.73031346177	0.0000000000000
746.50000000000	0.80088056659978	7.7197795645100	376.73031346177	0.0000000000000
748.00000000000	0.79763817499581	3.8119429727588	376.73031346177	0.0000000000000
749.50000000000	0.79328281381859	-0.20009078308284	376.73031346177	0.0000000000000
751.00000000000	0.78782215449874	-4.3331327924777	376.73031346177	0.0000000000000
752.50000000000	0.78124483170209	-8.6047458952320	376.73031346177	0.0000000000000
754.00000000000	0.77352390564558	-13.033543931729	376.73031346177	0.0000000000000
755.50000000000	0.76461902144337	-17.639518480556	376.73031346177	0.0000000000000
757.00000000000	0.75447748910252	-22.444374799941	376.73031346177	0.0000000000000
758.50000000000	0.74303454787053	-27.471850198868	376.73031346177	0.0000000000000
760.00000000000	0.73021324565463	-32.747978084625	376.73031346177	0.0000000000000
761.50000000000	0.71592460836112	-38.301253407962	376.73031346177	0.0000000000000
763.00000000000	0.70006899897294	-44.162651348623	376.73031346177	0.0000000000000
