#
#"Frequency / GHz"	"S1,1 [Mag]"	"S1,1 [Pha in deg.]"	"Ref.Imp. [Mag]"	"Ref.Imp. [Pha in deg.]"
#---------------------------------------------------------------------------------------------
400.00000000000	0.43924480397537	132.82408392883	376.73031346177	0.0000000000000
401.50000000000	0.39733016466000	133.84151120828	376.73031346177	0.0000000000000
403.00000000000	0.36245463752358	137.80341960134	376.73031346177	0.0000000000000
404.50000000000	0.34476763254960	144.59218365697	376.73031346177	0.0000000000000
406.00000000000	0.35181681543806	152.34397354559	376.73031346177	0.0000000000000
407.50000000000	0.38247005939155	158.44519414520	376.73031346177	0.0000000000000
409.00000000000	0.42820920316873	161.67017497553	376.73031346177	0.0000000000000
410.50000000000	0.47967680476608	162.34513869800	376.73031346177	0.0000000000000
412.00000000000	0.53040643492628	161.29218016517	376.73031346177	0.0000000000000
413.50000000000	0.57701917789571	159.22161007403	376.73031346177	0.0000000000000
415.00000000000	0.61826900285630	156.61289906169	376.73031346177	0.0000000000000
416.50000000000	0.65412955543548	153.75823347353	376.73031346177	0.0000000000000
418.00000000000	0.68517243440033	150.82436148252	376.73031346177	0.0000000000000
419.50000000000	0.71219598834079	147.89903866463	376.73031346177	0.0000000000000
421.00000000000	0.73601722870335	145.02115971795	376.73031346177	0.0000000000000
422.50000000000	0.75735722241578	142.19973850527	376.73031346177	0.0000000000000
424.00000000000	0.77677846500175	139.42639923676	376.73031346177	0.0000000000000
425.50000000000	0.79465616296305	136.68438800613	376.73031346177	0.0000000000000
427.00000000000	0.81117942668070	133.95551620027	376.73031346177	0.0000000000000
428.50000000000	0.82638171293492	131.22525666951	376.73031346177	0.0000000000000
430.00000000000	0.84019462026207	128.48567602345	376.73031346177	0.0000000000000
431.50000000000	0.85251159303630	125.73604645213	376.73031346177	0.0000000000000
433.00000000000	0.86324523368095	122.98152290268	376.73031346177	0.0000000000000
434.50000000000	0.87236621889389	120.23070433706	376.73031346177	0.0000000000000
436.00000000000	0.87991982456491	117.49293809199	376.73031346177	0.0000000000000
437.50000000000	0.88602256496188	114.77596311193	376.73031346177	0.0000000000000
439.00000000000	0.89084419780590	112.08419015253	376.73031346177	0.0000000000000
440.50000000000	0.89458076721586	109.41774939200	376.73031346177	0.0000000000000
442.00000000000	0.89742466813348	106.77235724041	376.73031346177	0.0000000000000
443.50000000000	0.89953816248616	104.13993837753	376.73031346177	0.0000000000000
445.00000000000	0.90103580048428	101.50975612069	376.73031346177	0.0000000000000
446.50000000000	0.90197794136438	98.869664776054	376.73031346177	0.0000000000000
448.00000000000	0.90237343128617	96.207120008134	376.73031346177	0.0000000000000
449.50000000000	0.90218684591777	93.509756120233	376.73031346177	0.0000000000000
451.00000000000	0.90134557903477	90.765542410175	376.73031346177	0.0000000000000
452.50000000000	0.89974364107369	87.962658950870	376.73031346177	0.0000000000000
454.00000000000	0.89724088622282	85.089265143557	376.73031346177	0.0000000000000
455.50000000000	0.89365764475565	82.133313656906	376.73031346177	0.0000000000000
457.00000000000	0.88876532753909	79.082537811990	376.73031346177	0.0000000000000
458.50000000000	0.88227387021700	75.924742788438	376.73031346177	0.0000000000000
460.00000000000	0.87381739623633	72.648571502727	376.73031346177	0.0000000000000
461.50000000000	0.86294071433176	69.244993997059	376.73031346177	0.0000000000000
463.00000000000	0.84909175072732	65.709872263266	376.73031346177	0.0000000000000
464.50000000000	0.83162915956045	62.048042669852	376.73031346177	0.0000000000000
466.00000000000	0.80985991242175	58.279342431723	376.73031346177	0.0000000000000
467.50000000000	0.78312646259803	54.446700074558	376.73031346177	0.0000000000000
469.00000000000	0.75096116738719	50.625536529318	376.73031346177	0.0000000000000
470.50000000000	0.71330699648624	46.932059292850	376.73031346177	0.0000000000000
472.00000000000	0.67076036562685	43.525812933707	376.73031346177	0.0000000000000
473.50000000000	0.62473546968714	40.600319730220	376.73031346177	0.0000000000000
475.00000000000	0.57742449200253	38.357010708340	376.73031346177	0.0000000000000
476.50000000000	0.53148907980875	36.963485028620	376.73031346177	0.0000000000000
478.00000000000	0.48955908311867	36.505902676123	376.73031346177	0.0000000000000
479.50000000000	0.45373341799557	36.951955511850	376.73031346177	0.0000000000000
481.00000000000	0.42526885166318	38.140196925858	376.73031346177	0.0000000000000
482.50000000000	0.40451708153082	39.802614348382	376.73031346177	0.0000000000000
484.00000000000	0.39104310668315	41.614718546830	376.73031346177	0.0000000000000
485.50000000000	0.38381859904297	43.257639877644	376.73031346177	0.0000000000000
487.00000000000	0.38142359003331	44.473537244631	376.73031346177	0.0000000000000
488.50000000000	0.38223997754607	45.099447682080	376.73031346177	0.0000000000000
490.00000000000	0.38463608627457	45.074154291538	376.73031346177	0.0000000000000
491.50000000000	0.38713211609701	44.423385336423	376.73031346177	0.0000000000000
493.00000000000	0.38853062126558	43.234558369157	376.73031346177	0.0000000000000
494.50000000000	0.38800386823803	41.630985593319	376.73031346177	0.0000000000000
496.00000000000	0.38514048315064	39.749890491855	376.73031346177	0.0000000000000
497.50000000000	0.37995442628269	37.722987467997	376.73031346177	0.0000000000000
499.00000000000	0.37284599267853	35.655385544946	376.73031346177	0.0000000000000
500.50000000000	0.36448483704186	33.599850685591	376.73031346177	0.0000000000000
502.00000000000	0.35558025574387	31.530497866445	376.73031346177	0.0000000000000
503.50000000000	0.34654418708053	29.331152296537	376.73031346177	0.0000000000000
505.00000000000	0.33714446855271	26.818704951057	376.73031346177	0.0000000000000
506.50000000000	0.32632639975171	23.807176087865	376.73031346177	0.0000000000000
508.00000000000	0.31234462781242	20.190342957079	376.73031346177	0.0000000000000
509.50000000000	0.29318967949823	16.012423401256	376.73031346177	0.0000000000000
511.00000000000	0.26716007189930	11.525878809438	376.73031346177	0.0000000000000
512.50000000000	0.23344505971009	7.2865161793748	376.73031346177	0.0000000000000
514.00000000000	0.19272888673156	4.4119897455352	376.73031346177	0.0000000000000
515.50000000000	0.14814043399733	5.3218779708319	376.73031346177	0.0000000000000
517.00000000000	0.10783118785484	15.459543836955	376.73031346177	0.0000000000000
518.50000000000	0.090293932027624	40.590928074892	376.73031346177	0.0000000000000
520.00000000000	0.10992334779463	64.542863739828	376.73031346177	0.0000000000000
521.50000000000	0.14988464476679	73.358862785138	376.73031346177	0.0000000000000
523.00000000000	0.19298551525967	73.383331960296	376.73031346177	0.0000000000000
524.50000000000	0.23220243533513	69.603105844272	376.73031346177	0.0000000000000
526.00000000000	0.26484561988598	64.142524552081	376.73031346177	0.0000000000000
527.50000000000	0.28997875097160	57.938212021069	376.73031346177	0.0000000000000
529.00000000000	0.30750432402730	51.447318543677	376.73031346177	0.0000000000000
530.50000000000	0.31776478903599	44.919653863260	376.73031346177	0.0000000000000
532.00000000000	0.32135104537578	38.513837359486	376.73031346177	0.0000000000000
533.50000000000	0.31902024539377	32.352844687771	376.73031346177	0.0000000000000
535.00000000000	0.31167570632758	26.552074896441	376.73031346177	0.0000000000000
536.50000000000	0.30037154771949	21.230802495569	376.73031346177	0.0000000000000
538.00000000000	0.28628568511101	16.509355723165	376.73031346177	0.0000000000000
539.50000000000	0.27054447349011	12.515526284410	376.73031346177	0.0000000000000
541.00000000000	0.25452390650916	9.5416176170978	376.73031346177	0.0000000000000
542.50000000000	0.24166597867416	7.5973040242083	376.73031346177	0.0000000000000
544.00000000000	0.23264553829883	6.0745246732892	376.73031346177	0.0000000000000
545.50000000000	0.22729389766729	4.6807839460371	376.73031346177	0.0000000000000
547.00000000000	0.22552679493044	3.0253800393924	376.73031346177	0.0000000000000
548.50000000000	0.22657489589563	0.72665204013908	376.73031346177	0.0000000000000
550.00000000000	0.22920211371122	-2.4422245686102	376.73031346177	0.0000000000000
551.50000000000	0.23206512160219	-6.5256364943756	376.73031346177	0.0000000000000
553.00000000000	0.23397329486803	-11.427589201796	376.73031346177	0.0000000000000
554.50000000000	0.23401371051929	-16.964593689071	376.73031346177	0.0000000000000
556.00000000000	0.23158605919291	-22.897740198979	376.73031346177	0.0000000000000
557.50000000000	0.22640846359359	-28.938064292538	376.73031346177	0.0000000000000
559.00000000000	0.21854654083719	-34.729986315696	376.73031346177	0.0000000000000
560.50000000000	0.20851263591610	-39.821845963624	376.73031346177	0.0000000000000
562.00000000000	0.19748363934541	-43.646869743533	376.73031346177	0.0000000000000
563.50000000000	0.18765912781952	-45.587557704851	376.73031346177	0.0000000000000
565.00000000000	0.18260255401795	-45.287339690336	376.73031346177	0.0000000000000
566.50000000000	0.18693064382060	-43.292678501520	376.73031346177	0.0000000000000
568.00000000000	0.20456949560123	-41.371120861962	376.73031346177	0.0000000000000
569.50000000000	0.23656118393373	-41.496483328402	376.73031346177	0.0000000000000
571.00000000000	0.28083511703199	-44.528055849027	376.73031346177	0.0000000000000
572.50000000000	0.33370672387963	-50.202577795235	376.73031346177	0.0000000000000
574.00000000000	0.39118447444722	-57.813021398069	376.73031346177	0.0000000000000
575.50000000000	0.44962345398813	-66.647518347591	376.73031346177	0.0000000000000
577.00000000000	0.50606917366540	-76.129783165078	376.73031346177	0.0000000000000
578.50000000000	0.55844481070043	-85.833845655828	376.73031346177	0.0000000000000
580.00000000000	0.60557179314451	-95.464295402978	376.73031346177	0.0000000000000
581.50000000000	0.64703590962286	-104.82998854568	376.73031346177	0.0000000000000
583.00000000000	0.68296830918872	-113.81836540727	376.73031346177	0.0000000000000
584.50000000000	0.71382118479969	-122.37283298700	376.73031346177	0.0000000000000
586.00000000000	0.74018870354579	-130.47438226380	376.73031346177	0.0000000000000
587.50000000000	0.76268824701001	-138.12769183185	376.73031346177	0.0000000000000
589.00000000000	0.78189457730298	-145.35127142955	376.73031346177	0.0000000000000
590.50000000000	0.79831158165529	-152.17085767343	376.73031346177	0.0000000000000
592.00000000000	0.81236684767418	-158.61523215717	376.73031346177	0.0000000000000
593.50000000000	0.82441798120639	-164.71374624383	376.73031346177	0.0000000000000
595.00000000000	0.83476338843637	-170.49499294426	376.73031346177	0.0000000000000
596.50000000000	0.84365326126478	-175.98620803869	376.73031346177	0.0000000000000
598.00000000000	0.85129867733534	178.78690288322	376.73031346177	0.0000000000000
599.50000000000	0.85787820087475	173.80012179375	376.73031346177	0.0000000000000
601.00000000000	0.86354225496293	169.03059252184	376.73031346177	0.0000000000000
602.50000000000	0.86841591284423	164.45668151417	376.73031346177	0.0000000000000
604.00000000000	0.87260075067149	160.05784964863	376.73031346177	0.0000000000000
605.50000000000	0.87617618888407	155.81453410560	376.73031346177	0.0000000000000
607.00000000000	0.87920048959608	151.70803009463	376.73031346177	0.0000000000000
608.50000000000	0.88171137823644	147.72036334544	376.73031346177	0.0000000000000
610.00000000000	0.88372615153673	143.83414951203	376.73031346177	0.0000000000000
611.50000000000	0.88524110227739	140.03244174783	376.73031346177	0.0000000000000
613.00000000000	0.88623009611160	136.29857078328	376.73031346177	0.0000000000000
614.50000000000	0.88664214143791	132.61598273450	376.73031346177	0.0000000000000
616.00000000000	0.88639777272981	128.96807949241	376.73031346177	0.0000000000000
617.50000000000	0.88538400077181	125.33806647302	376.73031346177	0.0000000000000
619.00000000000	0.88344745374793	121.70881515717	376.73031346177	0.0000000000000
620.50000000000	0.88038513243776	118.06275707654	376.73031346177	0.0000000000000
622.00000000000	0.87593194375333	114.38184828971	376.73031346177	0.0000000000000
623.50000000000	0.86974392419789	110.64769031918	376.73031346177	0.0000000000000
625.00000000000	0.86137599673381	106.84198453735	376.73031346177	0.0000000000000
626.50000000000	0.85025363706604	102.94766521644	376.73031346177	0.0000000000000
628.00000000000	0.83563985162067	98.951356204914	376.73031346177	0.0000000000000
629.50000000000	0.81660416692568	94.848309315235	376.73031346177	0.0000000000000
631.00000000000	0.79201206099232	90.651806745845	376.73031346177	0.0000000000000
632.50000000000	0.76057590995433	86.410174386431	376.73031346177	0.0000000000000
634.00000000000	0.72104484870861	82.235713369608	376.73031346177	0.0000000000000
635.50000000000	0.67265056899139	78.349439538654	376.73031346177	0.0000000000000
637.00000000000	0.61592027407806	75.138730820005	376.73031346177	0.0000000000000
638.50000000000	0.55380586521964	73.200239047653	376.73031346177	0.0000000000000
640.00000000000	0.49263109622559	73.278452458873	376.73031346177	0.0000000000000
641.50000000000	0.44167730184945	75.923963996199	376.73031346177	0.0000000000000
643.00000000000	0.40999480262449	80.817542610408	376.73031346177	0.0000000000000
644.50000000000	0.40114095475139	86.445071868079	376.73031346177	0.0000000000000
646.00000000000	0.41086970351810	91.042813046321	376.73031346177	0.0000000000000
647.50000000000	0.43090292219165	93.791214492936	376.73031346177	0.0000000000000
649.00000000000	0.45391216383061	94.814829631271	376.73031346177	0.0000000000000
650.50000000000	0.47534303583619	94.587252013496	376.73031346177	0.0000000000000
652.00000000000	0.49296224922678	93.564591210507	376.73031346177	0.0000000000000
653.50000000000	0.50595128081211	92.090192723469	376.73031346177	0.0000000000000
655.00000000000	0.51424932771462	90.407535489153	376.73031346177	0.0000000000000
656.50000000000	0.51820107986083	88.693570548111	376.73031346177	0.0000000000000
658.00000000000	0.51841373302183	87.085473769524	376.73031346177	0.0000000000000
659.50000000000	0.51573235771474	85.695171370039	376.73031346177	0.0000000000000
661.00000000000	0.51126267306066	84.610538673656	376.73031346177	0.0000000000000
662.50000000000	0.50637376605007	83.882850240848	376.73031346177	0.0000000000000
664.00000000000	0.50260680166311	83.503093607299	376.73031346177	0.0000000000000
665.50000000000	0.50142815039496	83.378153304654	376.73031346177	0.0000000000000
667.00000000000	0.50383647203679	83.328017179441	376.73031346177	0.0000000000000
668.50000000000	0.50996439435349	83.122969313548	376.73031346177	0.0000000000000
670.00000000000	0.51890704593293	82.553944148094	376.73031346177	0.0000000000000
671.50000000000	0.52892351267615	81.498361048334	376.73031346177	0.0000000000000
673.00000000000	0.53791879734490	79.944784900890	376.73031346177	0.0000000000000
674.50000000000	0.54394433688097	77.973749486126	376.73031346177	0.0000000000000
676.00000000000	0.54550390069630	75.720613403238	376.73031346177	0.0000000000000
677.50000000000	0.54163157554422	73.347131314171	376.73031346177	0.0000000000000
679.00000000000	0.53185011080985	71.033614883292	376.73031346177	0.0000000000000
680.50000000000	0.51615470185886	68.990747729941	376.73031346177	0.0000000000000
682.00000000000	0.49513727858180	67.483367208350	376.73031346177	0.0000000000000
683.50000000000	0.47031405625100	66.850614062401	376.73031346177	0.0000000000000
685.00000000000	0.44462308765787	67.485817619417	376.73031346177	0.0000000000000
686.50000000000	0.42281393364941	69.702401007287	376.73031346177	0.0000000000000
688.00000000000	0.41099611247644	73.422846573738	376.73031346177	0.0000000000000
689.50000000000	0.41449300743335	77.867713826531	376.73031346177	0.0000000000000
691.00000000000	0.43474617662964	81.762200991468	376.73031346177	0.0000000000000
692.50000000000	0.46826852833957	84.104244485708	376.73031346177	0.0000000000000
694.00000000000	0.50888195671673	84.632287516245	376.73031346177	0.0000000000000
695.50000000000	0.55068961457367	83.626314034419	376.73031346177	0.0000000000000
697.00000000000	0.58956660709128	81.529577475407	376.73031346177	0.0000000000000
698.50000000000	0.62323411212756	78.733991489258	376.73031346177	0.0000000000000
700.00000000000	0.65074094897863	75.521513472839	376.73031346177	0.0000000000000
701.50000000000	0.67189129048162	72.074483136081	376.73031346177	0.0000000000000
703.00000000000	0.68681037130560	68.503212406822	376.73031346177	0.0000000000000
704.50000000000	0.69566352881541	64.872007699967	376.73031346177	0.0000000000000
706.00000000000	0.69848759500251	61.219976689879	376.73031346177	0.0000000000000
707.50000000000	0.69509248195835	57.578509309749	376.73031346177	0.0000000000000
709.00000000000	0.68501102200536	53.989549372702	376.73031346177	0.0000000000000
710.50000000000	0.66750963765534	50.530817499039	376.73031346177	0.0000000000000
712.00000000000	0.64173417372089	47.357378972023	376.73031346177	0.0000000000000
713.50000000000	0.60718318631158	44.772225846787	376.73031346177	0.0000000000000
715.00000000000	0.56489015914299	43.329718475997	376.73031346177	0.0000000000000
716.50000000000	0.51977390747236	43.899958727616	376.73031346177	0.0000000000000
718.00000000000	0.48355918917980	47.349206245289	376.73031346177	0.0000000000000
719.50000000000	0.47343475471531	53.275641141149	376.73031346177	0.0000000000000
721.00000000000	0.49962497811576	59.013284621296	376.73031346177	0.0000000000000
722.50000000000	0.55371566016240	61.893590432501	376.73031346177	0.0000000000000
724.00000000000	0.61749092655002	61.608666473879	376.73031346177	0.0000000000000
725.50000000000	0.67722629651144	59.208799694250	376.73031346177	0.0000000000000
727.00000000000	0.72707745997582	55.713754827741	376.73031346177	0.0000000000000
728.50000000000	0.76625836650654	51.752737919550	376.73031346177	0.0000000000000
730.00000000000	0.79608761445522	47.649583242066	376.73031346177	0.0000000000000
731.50000000000	0.81837661691980	43.552730042703	376.73031346177	0.0000000000000
733.00000000000	0.83479796924860	39.520877155630	376.73031346177	0.0000000000000
734.50000000000	0.84672193457927	35.568843644487	376.73031346177	0.0000000000000
736.00000000000	0.85521994351460	31.690014100016	376.73031346177	0.0000000000000
737.50000000000	0.86110649454801	27.867151901316	376.73031346177	0.0000000000000
739.00000000000	0.86498187206738	24.078039671980	376.73031346177	0.0000000000000
740.50000000000	0.86727215115522	20.298777078375	376.73031346177	0.0000000000000
742.00000000000	0.86826766663222	16.505702424694	376.73031346177	0.0000000000000
743.50000000000	0.86815804275271	12.676300625340	376.73031346177	0.0000000000000
745.00000000000	0.86706102462284	8.7893982000837	376.73031346177	0.0000000000000
746.50000000000	0.86504405608381	4.8249439101994	376.73031346177	0.0000000000000
748.00000000000	0.86213940129164	0.76360259871477	376.73031346177	0.0000000000000
749.50000000000	0.85835444130655	-3.4137115610334	376.73031346177	0.0000000000000
751.00000000000	0.85367868922796	-7.7263231940311	376.73031346177	0.0000000000000
752.50000000000	0.84808837194240	-12.194324547154	376.73031346177	0.0000000000000
754.00000000000	0.84154818823127	-16.839175469003	376.73031346177	0.0000000000000
755.50000000000	0.83400869491990	-21.684299299012	376.73031346177	0.0000000000000
757.00000000000	0.82539977772287	-26.755378253500	376.73031346177	0.0000000000000
758.50000000000	0.81562704771960	-32.080162565114	376.73031346177	0.0000000000000
760.00000000000	0.80457654073355	-37.688298502060	376.73031346177	0.0000000000000
761.50000000000	0.79211995314242	-43.611645616675	376.73031346177	0.0000000000000
763.00000000000	0.77811324430198	-49.884577511501	376.73031346177	0.0000000000000
