#
#"Frequency / GHz"	"S1,4 [Mag]"	"S1,4 [Pha in deg.]"
#---------------------------------------------------
290.00000000000	0.60074537060814	139.25009763183
290.61000000000	0.60608724074670	135.95650963699
291.22000000000	0.61169159865686	132.61495635257
291.83000000000	0.61750791324823	129.22392390749
292.44000000000	0.62348223549994	125.78252341531
293.05000000000	0.62955775955764	122.29050512784
293.66000000000	0.63567549808059	118.74826638538
294.27000000000	0.64177508762155	115.15685250735
294.88000000000	0.64779573085480	111.51794923873
295.49000000000	0.65367727023723	107.83386507247
296.10000000000	0.65936137321230	104.10750175326
296.71000000000	0.66479279375728	100.34231155126
297.32000000000	0.66992066067220	96.542240464306
297.93000000000	0.67469973142284	92.711657317026
298.54000000000	0.67909154341381	88.855269701188
299.15000000000	0.68306539373430	84.978028739234
299.76000000000	0.68659908446100	81.085025635924
300.37000000000	0.68967938339078	77.181383792024
300.98000000000	0.69230216850181	73.272150786349
301.59000000000	0.69447224653286	69.362194718066
302.20000000000	0.69620285929116	65.456109212329
302.81000000000	0.69751491294575	61.558130849962
303.42000000000	0.69843598324731	57.672071949531
304.03000000000	0.69899916159404	53.801270603874
304.64000000000	0.69924181230580	49.948558764504
305.25000000000	0.69920431045782	46.116248087043
305.86000000000	0.69892882305261	42.306132293369
306.47000000000	0.69845818559756	38.519504040193
307.08000000000	0.69783491298320	34.757183747832
307.69000000000	0.69710036955989	31.019557546142
308.30000000000	0.69629410988665	27.306621422313
308.91000000000	0.69545338980779	23.618028775126
309.52000000000	0.69461283793654	19.953138850666
310.13000000000	0.69380427055965	16.311063909865
310.74000000000	0.69305662839760	12.690713415081
311.35000000000	0.69239601132907	9.0908339822734
311.96000000000	0.69184578675936	5.5100442951438
312.57000000000	0.69142674837006	1.9468645929286
313.18000000000	0.69115730411884	-1.6002592931337
313.79000000000	0.69105367518325	-5.1329370793065
314.40000000000	0.69113009073066	-8.6528198369975
315.01000000000	0.69139896667868	-12.161589796067
315.62000000000	0.69187105978126	-15.660953370329
316.23000000000	0.69255559128744	-19.152636587269
316.84000000000	0.69346033698268	-22.638382106758
317.45000000000	0.69459168259554	-26.119947053614
318.06000000000	0.69595464533228	-29.599100956047
318.67000000000	0.69755286372053	-33.077623167310
319.28000000000	0.69938855905120	-36.557299243312
319.89000000000	0.70146247257052	-40.039915848838
320.50000000000	0.70377378325797	-43.527253865041
321.11000000000	0.70632001159509	-47.021079469065
321.72000000000	0.70909691523589	-50.523133052077
322.33000000000	0.71209838296828	-54.035115935126
322.94000000000	0.71531633382517	-57.558674934001
323.55000000000	0.71874062866140	-61.095384916062
324.16000000000	0.72235900193455	-64.646729584580
324.77000000000	0.72615702177313	-68.214080820413
325.38000000000	0.73011808662297	-71.798677006390
325.99000000000	0.73422346675962	-75.401600855821
326.60000000000	0.73845239865490	-79.023757361049
327.21000000000	0.74278223949926	-82.665852568146
327.82000000000	0.74718868802088	-86.328373965826
328.43000000000	0.75164607602691	-90.011573345670
329.04000000000	0.75612773276708	-93.715453041394
329.65000000000	0.76060642125582	-97.439756480823
330.26000000000	0.76505484210722	-101.18396397906
330.87000000000	0.76944619630529	-104.94729465823
331.48000000000	0.77375479378279	-108.72871529211
332.09000000000	0.77795668990655	-112.52695673637
332.70000000000	0.78203032721415	-116.34053841312
333.31000000000	0.78595715531437	-120.16780106647
333.92000000000	0.78972219808284	-124.00694769154
334.53000000000	0.79331453451046	-127.85609215950
335.14000000000	0.79672765816747	-131.71331461443
335.75000000000	0.79995968062030	-135.57672220420
336.36000000000	0.80301334670087	-139.44451313265
336.97000000000	0.80589583473923	-143.31504139819
337.58000000000	0.80861832322730	-147.18687894484
338.19000000000	0.81119531737172	-151.05887135187
338.80000000000	0.81364374497280	-154.93018271687
339.41000000000	0.81598185103051	-158.80032517141
340.02000000000	0.81822794373697	-162.66916866852
340.63000000000	0.82039906931090	-166.53692746686
341.24000000000	0.82250971634274	-170.40412124100
341.85000000000	0.82457066745566	-174.27151100970
342.46000000000	0.82658812178086	-178.14001296357
343.07000000000	0.82856320091400	177.98940354974
343.68000000000	0.83049192058102	174.11582470981
344.29000000000	0.83236566093324	170.23849641298
344.90000000000	0.83417210595324	166.35691234801
345.51000000000	0.83589655736091	162.47087577455
346.12000000000	0.83752347378355	158.58052807547
346.73000000000	0.83903805400226	154.68634168754
347.34000000000	0.84042768129380	150.78907993003
347.95000000000	0.84168307448464	146.88973054561
348.56000000000	0.84279904317206	142.98942262767
349.17000000000	0.84377480747383	139.08933761851
349.78000000000	0.84461390327684	135.19062428679
350.39000000000	0.84532374144295	131.29432547277
351.00000000000	0.84591491785195	127.40132157162
351.61000000000	0.84640037986160	123.51229284358
352.22000000000	0.84679454719478	119.62770017984
352.83000000000	0.84711246703110	115.74778218006
353.44000000000	0.84736906004943	111.87256537164
354.05000000000	0.84757849114381	108.00188403353
354.66000000000	0.84775367868326	104.13540621339
355.27000000000	0.84790594103217	100.27266296228
355.88000000000	0.84804476884366	96.413078395958
356.49000000000	0.84817770581900	92.555998804715
357.10000000000	0.84831031824847	88.700719598228
357.71000000000	0.84844623368886	84.846509347716
358.32000000000	0.84858723068117	80.992630561490
358.93000000000	0.84873336375017	77.138357106028
359.54000000000	0.84888311054297	73.282988376120
360.15000000000	0.84903353052931	69.425860440940
360.76000000000	0.84918042701504	65.566354464729
361.37000000000	0.84931850622845	61.703902735543
361.98000000000	0.84944152891009	57.837992645056
362.59000000000	0.84954245119134	53.968168955628
363.20000000000	0.84961355262509	50.094034674390
363.81000000000	0.84964655008204	46.215250832231
364.42000000000	0.84963269689118	42.331535441438
365.03000000000	0.84956286712436	38.442661881037
365.64000000000	0.84942762533365	34.548456934718
366.25000000000	0.84921728237195	30.648798683219
366.86000000000	0.84892193818028	26.743614431572
367.47000000000	0.84853151262255	22.832878831915
368.08000000000	0.84803576559984	18.916612344918
368.69000000000	0.84742430778941	14.994880167606
369.30000000000	0.84668660343464	11.067791742886
369.91000000000	0.84581196666916	7.1355009569130
370.52000000000	0.84478955290149	3.1982071251709
371.13000000000	0.84360834682751	-0.74384313260708
371.74000000000	0.84225714869555	-4.6903530241254
372.35000000000	0.84072456054393	-8.6409716081842
372.96000000000	0.83899897429214	-12.595288579571
373.57000000000	0.83706856382902	-16.552827662311
374.18000000000	0.83492128364481	-20.513038430794
374.79000000000	0.83254487714660	-24.475286346473
375.40000000000	0.82992689863074	-28.438840764267
376.01000000000	0.82705475401700	-32.402860631614
376.62000000000	0.82391576693118	-36.366377580656
377.23000000000	0.82049727860005	-40.328276110088
377.84000000000	0.81678679231290	-44.287270581668
378.45000000000	0.81277217588229	-48.241878837094
379.06000000000	0.80844193848947	-52.190392400517
379.67000000000	0.80378560128901	-56.130843504957
380.28000000000	0.79879418373286	-60.060969609152
380.89000000000	0.79346082905601	-63.978176701544
381.50000000000	0.78778159170919	-67.879503564819
382.11000000000	0.78175640533817	-71.761590328236
382.72000000000	0.77539024048809	-75.620656063105
383.33000000000	0.76869444471658	-79.452491815845
383.94000000000	0.76168823261674	-83.252477165649
384.55000000000	0.75440025858840	-87.015629852048
385.16000000000	0.74687016191009	-90.736698796377
385.77000000000	0.73914992524396	-94.410310336485
386.38000000000	0.73130484117568	-98.031174998998
386.99000000000	0.72341384770136	-101.59435697856
387.60000000000	0.71556898686489	-105.09560029850
388.21000000000	0.70787377586198	-108.53169464505
388.82000000000	0.70044036789998	-111.90085133579
389.43000000000	0.69338552226221	-115.20304821494
390.04000000000	0.68682558555243	-118.44029484493
390.65000000000	0.68087087795624	-121.61676976395
391.26000000000	0.67562003547253	-124.73879228722
391.87000000000	0.67115493560266	-127.81461231928
392.48000000000	0.66753679809070	-130.85402954901
393.09000000000	0.66480390014956	-133.86788193808
393.70000000000	0.66297110655192	-136.86746523655
394.31000000000	0.66203114403874	-139.86395458284
394.92000000000	0.66195730939861	-142.86789403345
395.53000000000	0.66270714105137	-145.88880247958
396.14000000000	0.66422652764340	-148.93492041842
396.75000000000	0.66645376694251	-152.01309794961
397.36000000000	0.66932319554654	-155.12880534292
397.97000000000	0.67276814764213	-158.28623619006
398.58000000000	0.67672313619786	-161.48846954640
399.19000000000	0.68112526047516	-164.73765985483
399.80000000000	0.68591491999680	-168.03522940297
400.41000000000	0.69103595755145	-171.38204534149
401.02000000000	0.69643536883650	-174.77857025707
401.63000000000	0.70206271255386	-178.22498104269
402.24000000000	0.70786934035626	178.27874497010
402.85000000000	0.71380754740512	174.73277487798
403.46000000000	0.71982972571793	171.13739272887
404.07000000000	0.72588758628869	167.49299559086
404.68000000000	0.73193150300205	163.80010881835
405.29000000000	0.73791002144341	160.05941621198
405.90000000000	0.74376956801857	156.27180092642
406.51000000000	0.74945438819067	152.43839314508
407.12000000000	0.75490673586886	148.56062066391
407.73000000000	0.76006732786344	144.64025860357
408.34000000000	0.76487606691246	140.67947452744
408.95000000000	0.76927302353234	136.68086533435
409.56000000000	0.77319965084587	132.64748248324
410.17000000000	0.77660018826700	128.58284245999
410.78000000000	0.77942319088511	124.49091997192
411.39000000000	0.78162310369815	120.37612218859
412.00000000000	0.78316178609585	116.24324343988
412.61000000000	0.78400988492364	112.09740108869
413.22000000000	0.78414795642472	107.94395472277
413.83000000000	0.78356724978639	103.78841221907
414.44000000000	0.78227008789226	99.636327453085
415.05000000000	0.78026981245881	95.493195277619
415.66000000000	0.77759029756710	91.364349725354
416.27000000000	0.77426507296598	87.254871101935
416.88000000000	0.77033613119877	83.169506721633
417.49000000000	0.76585251585313	79.112608589494
418.10000000000	0.76086879879507	75.088089545004
418.71000000000	0.75544355107009	71.099397517126
419.32000000000	0.74963789666759	67.149505886659
419.93000000000	0.74351421415200	63.240916760157
420.54000000000	0.73713502320930	59.375673387027
421.15000000000	0.73056206656589	55.555378025191
421.76000000000	0.72385557665958	51.781212175736
422.37000000000	0.71707370322808	48.053957058528
422.98000000000	0.71027207290944	44.374013243385
423.59000000000	0.70350345353723	40.741419262371
424.20000000000	0.69681750154265	37.155869658513
424.81000000000	0.69026057804507	33.616733219539
425.42000000000	0.68387562563191	30.123072133590
426.03000000000	0.67770210220504	26.673662576261
426.64000000000	0.67177597023445	23.267016905230
427.25000000000	0.66612973964810	19.901407300261
427.86000000000	0.66079256112057	16.574890413775
428.47000000000	0.65579036449653	13.285332426379
429.08000000000	0.65114603515728	10.030433838289
429.69000000000	0.64687961973402	6.8077533555904
430.30000000000	0.64300855187234	3.6147303237105
430.91000000000	0.63954788875305	0.44870529098749
431.52000000000	0.63651054964689	-2.6930615715288
432.13000000000	0.63390754874379	-5.8133743301764
432.74000000000	0.63174821566899	-8.9150874437968
433.35000000000	0.63004039831633	-12.001094130249
433.96000000000	0.62879064378010	-15.074316785091
434.57000000000	0.62800435416888	-18.137699238840
435.18000000000	0.62768591490183	-21.194200602442
435.79000000000	0.62783879370626	-24.246790427306
436.40000000000	0.62846560896603	-27.298444892077
437.01000000000	0.62956816633673	-30.352143719677
437.62000000000	0.63114746268055	-33.410867521706
438.23000000000	0.63320365642015	-36.477595260568
438.84000000000	0.63573600341140	-39.555301511183
439.45000000000	0.63874275743834	-42.646953192518
440.06000000000	0.64222103449295	-45.755505424602
440.67000000000	0.64616664017348	-48.883896149689
441.28000000000	0.65057385988109	-52.035039138272
441.89000000000	0.65543521208103	-55.211814984531
442.50000000000	0.66074116578884	-58.417059684681
443.11000000000	0.66647982471430	-61.653550390371
443.72000000000	0.67263658220483	-64.923987942863
444.33000000000	0.67919375332759	-68.230975828516
444.94000000000	0.68613019313852	-71.576995258612
445.55000000000	0.69342091339542	-74.964376173416
446.16000000000	0.70103671361608	-78.395264108017
446.77000000000	0.70894384632343	-81.871583040829
447.38000000000	0.71710374032800	-85.394994577982
447.99000000000	0.72547280963880	-88.966854107846
448.60000000000	0.73400237860933	-92.588164885183
449.21000000000	0.74263875565081	-96.259531362907
449.82000000000	0.75132348762254	-99.981113463225
450.43000000000	0.75999382415684	-103.75258384205
451.04000000000	0.76858341506907	-107.57309051573
451.65000000000	0.77702325420651	-111.44122744459
452.26000000000	0.78524286950537	-115.35501575586
452.87000000000	0.79317174204170	-119.31189819429
453.48000000000	0.80074091747159	-123.30874907294
454.09000000000	0.80788475308430	-127.34190144000
454.70000000000	0.81454272492239	-131.40719238440
455.31000000000	0.82066120455514	-135.50002640963
455.92000000000	0.82619510659110	-139.61545568221
456.53000000000	0.83110930785249	-143.74827480778
457.14000000000	0.83537974835094	-147.89312672134
457.75000000000	0.83899414258330	-152.04461541909
458.36000000000	0.84195225562982	-156.19742071080
458.97000000000	0.84426572930972	-160.34641000162
459.58000000000	0.84595747568806	-164.48674234320
460.19000000000	0.84706068481909	-168.61396059577
460.80000000000	0.84761751749935	-172.72406844060
461.41000000000	0.84767756971080	-176.81359006898
462.02000000000	0.84729620234963	179.12038847250
462.63000000000	0.84653282804398	175.08019619598
463.24000000000	0.84544923772346	171.06757130153
463.85000000000	0.84410803517677	167.08367072832
464.46000000000	0.84257123045544	163.12909282699
465.07000000000	0.84089902487503	159.20391058626
465.68000000000	0.83914880335830	155.30771279808
466.29000000000	0.83737433524978	151.43965067207
466.90000000000	0.83562517322808	147.59848766466
467.51000000000	0.83394623177421	143.78265062254
468.12000000000	0.83237752165484	139.99028070991
468.73000000000	0.83095401463257	136.21928296073
469.34000000000	0.82970561257559	132.46737364354
469.95000000000	0.82865719673076	128.73212493191
470.56000000000	0.82782873561053	125.01100662735
471.17000000000	0.82723543326644	121.30142488211
471.78000000000	0.82688790331594	117.60075801616
472.39000000000	0.82679235768445	113.90638962129
473.00000000000	0.82695080243309	110.21573920044
473.61000000000	0.82736123614305	106.52629060854
474.22000000000	0.82801784904913	102.83561854917
474.83000000000	0.82891122341700	99.141413345296
475.44000000000	0.83002853752444	95.441504147376
476.05000000000	0.83135377702542	91.733880675062
476.66000000000	0.83286795844443	88.016713513625
477.27000000000	0.83454937006351	84.288372908490
477.88000000000	0.83637383552712	80.547445925876
478.49000000000	0.83831500510658	76.792751778825
479.10000000000	0.84034467875292	73.023355060165
479.71000000000	0.84243316385686	69.238576580833
480.32000000000	0.84454966907412	65.438001485970
480.93000000000	0.84666273372996	61.621484313779
481.54000000000	0.84874069026561	57.789150673440
482.15000000000	0.85075215501853	53.941395247183
482.76000000000	0.85266654042427	50.078875866433
483.37000000000	0.85445457957650	46.202503470710
483.98000000000	0.85608885206774	42.313427829993
484.59000000000	0.85754429824563	38.413018996686
485.20000000000	0.85879870756886	34.502844553819
485.81000000000	0.85983316576577	30.584642843640
486.42000000000	0.86063244515231	26.660292496169
487.03000000000	0.86118532292830	22.731778728318
487.64000000000	0.86148481369716	18.801157044227
488.25000000000	0.86152830493306	14.870515124386
488.86000000000	0.86131758762682	10.941933829096
489.47000000000	0.86085877871379	7.0174483430042
490.08000000000	0.86016213681586	3.0990105359278
490.69000000000	0.85924177789672	-0.81154639994624
491.30000000000	0.85811530216984	-4.7125400583717
491.91000000000	0.85680334756726	-8.6024668384047
492.52000000000	0.85532908792992	-12.480025233010
493.13000000000	0.85371769561166	-16.344133968900
493.74000000000	0.85199578836092	-20.193944814681
494.35000000000	0.85019087927215	-24.028850102074
494.96000000000	0.84833084652032	-27.848485210350
495.57000000000	0.84644343682446	-31.652726438002
496.18000000000	0.84455581348831	-35.441684825627
496.79000000000	0.84269415681549	-39.215696605252
497.40000000000	0.84088332210257	-42.975311048239
498.01000000000	0.83914655881125	-46.721276592746
498.62000000000	0.83750529481776	-50.454526297981
499.23000000000	0.83597899379001	-54.176163973328
499.84000000000	0.83458510658755	-57.887452892000
500.45000000000	0.83333917212907	-61.589809979027
501.06000000000	0.83225521676020	-65.284809638492
501.67000000000	0.83134686599632	-68.974200352227
502.28000000000	0.83063035094138	-72.659915063464
502.89000000000	0.83013255405612	-76.343895749715
503.50000000000	0.82990720792082	-80.026642337928
504.11000000000	0.83000551322761	-83.701323003887
504.72000000000	0.83021258532924	-87.357850854989
505.33000000000	0.83029834197546	-91.017503665361
505.94000000000	0.83049011932687	-94.693941621013
506.55000000000	0.83089380971874	-98.381868580858
507.16000000000	0.83149483211412	-102.07837977360
507.77000000000	0.83226570143616	-105.78328782353
508.38000000000	0.83318269831444	-109.49726148653
508.99000000000	0.83422476581824	-113.22114237667
509.60000000000	0.83537174853820	-116.95573058833
510.21000000000	0.83660343766215	-120.70171216558
510.82000000000	0.83789915433200	-124.45963030576
511.43000000000	0.83923762486531	-128.22987110940
512.04000000000	0.84059701664073	-132.01265470644
512.65000000000	0.84195507028524	-135.80802872837
513.26000000000	0.84328929707673	-139.61586312493
513.87000000000	0.84457722688735	-143.43584606553
514.48000000000	0.84579670026699	-147.26748099473
515.09000000000	0.84692620240734	-151.11008511841
515.70000000000	0.84794523843700	-154.96278978746
516.31000000000	0.84883474936060	-158.82454345136
516.92000000000	0.84957756601176	-162.69411807743
517.53000000000	0.85015889445012	-166.57012014872
518.14000000000	0.85056682011703	-170.45100751788
518.75000000000	0.85079280984117	-174.33511343770
519.36000000000	0.85083218102729	-178.22067892302
519.97000000000	0.85068449737072	177.89410586020
520.58000000000	0.85035384234834	174.01105129852
521.19000000000	0.84984891834514	170.13191041508
521.80000000000	0.84918292353093	166.25831604300
522.41000000000	0.84837317269656	162.39171725211
523.02000000000	0.84744045253851	158.53332036327
523.63000000000	0.84640813396924	154.68404041315
524.24000000000	0.84530109866615	150.84446853498
524.85000000000	0.84414456702799	147.01485929765
525.46000000000	0.84296293272949	143.19513976196
526.07000000000	0.84177871021622	139.38493928766
526.68000000000	0.84061168494940	135.58363652609
527.29000000000	0.83947832572095	131.79041810470
527.90000000000	0.83839148098407	128.00434261045
528.51000000000	0.83736034499274	124.22440368251
529.12000000000	0.83639065134185	120.44958713485
529.73000000000	0.83548503498674	116.67891867584
530.34000000000	0.83464349937851	112.91150056089
530.95000000000	0.83386393073127	109.14653706942
531.56000000000	0.83314261302871	105.38334983450
532.17000000000	0.83247471145795	101.62138471278
532.78000000000	0.83185470554874	97.860212111581
533.39000000000	0.83127676452088	94.099522597889
534.00000000000	0.83073506538918	90.339119324304
