#
#"Frequency / GHz"	"S1,1 [Mag]"	"S1,1 [Pha in deg.]"	"Ref.Imp. [Mag]"	"Ref.Imp. [Pha in deg.]"
#---------------------------------------------------------------------------------------------
290.00000000000	0.23185391798577	-138.08815451996	376.73031346177	0.00000000000000
290.61000000000	0.23789009654585	-146.75678776220	376.73031346177	0.00000000000000
291.22000000000	0.24560346496057	-155.04217835013	376.73031346177	0.00000000000000
291.83000000000	0.25472603678081	-162.90275178874	376.73031346177	0.00000000000000
292.44000000000	0.26498222920052	-170.32422409060	376.73031346177	0.00000000000000
293.05000000000	0.27610630007324	-177.31284059448	376.73031346177	0.00000000000000
293.66000000000	0.28785343246910	176.11161454425	376.73031346177	0.00000000000000
294.27000000000	0.30000545857321	169.92171978067	376.73031346177	0.00000000000000
294.88000000000	0.31237273609211	164.08677854317	376.73031346177	0.00000000000000
295.49000000000	0.32479360033445	158.57572176680	376.73031346177	0.00000000000000
296.10000000000	0.33713247965044	153.35885187392	376.73031346177	0.00000000000000
296.71000000000	0.34927740448802	148.40876329550	376.73031346177	0.00000000000000
297.32000000000	0.36113735383715	143.70072382986	376.73031346177	0.00000000000000
297.93000000000	0.37263968421938	139.21272796169	376.73031346177	0.00000000000000
298.54000000000	0.38372776117220	134.92536631127	376.73031346177	0.00000000000000
299.15000000000	0.39435883988484	130.82160370446	376.73031346177	0.00000000000000
299.76000000000	0.40450220161081	126.88652200458	376.73031346177	0.00000000000000
300.37000000000	0.41413753230681	123.10705978818	376.73031346177	0.00000000000000
300.98000000000	0.42325352093280	119.47176574060	376.73031346177	0.00000000000000
301.59000000000	0.43184665173695	115.97057342428	376.73031346177	0.00000000000000
302.20000000000	0.43992016463500	112.59459972725	376.73031346177	0.00000000000000
302.81000000000	0.44748315885431	109.33596638511	376.73031346177	0.00000000000000
303.42000000000	0.45454981653171	106.18764254130	376.73031346177	0.00000000000000
304.03000000000	0.46113872456832	103.14330576527	376.73031346177	0.00000000000000
304.64000000000	0.46727227463607	100.19721891339	376.73031346177	0.00000000000000
305.25000000000	0.47297612280264	97.344120465713	376.73031346177	0.00000000000000
305.86000000000	0.47827869186082	94.579126366585	376.73031346177	0.00000000000000
306.47000000000	0.48321070119680	91.897641857467	376.73031346177	0.00000000000000
307.08000000000	0.48780471099515	89.295282264920	376.73031346177	0.00000000000000
307.69000000000	0.49209466982254	86.767802163464	376.73031346177	0.00000000000000
308.30000000000	0.49611545719761	84.311032745953	376.73031346177	0.00000000000000
308.91000000000	0.49990241564220	81.920827582275	376.73031346177	0.00000000000000
309.52000000000	0.50349086987452	79.593017210138	376.73031346177	0.00000000000000
310.13000000000	0.50691563415010	77.323373161239	376.73031346177	0.00000000000000
310.74000000000	0.51021051213262	75.107582066889	376.73031346177	0.00000000000000
311.35000000000	0.51340779688747	72.941230400194	376.73031346177	0.00000000000000
311.96000000000	0.51653778140789	70.819800196985	376.73031346177	0.00000000000000
312.57000000000	0.51962829226714	68.738675766301	376.73031346177	0.00000000000000
313.18000000000	0.52270426031983	66.693160977936	376.73031346177	0.00000000000000
313.79000000000	0.52578734267857	64.678506236405	376.73031346177	0.00000000000000
314.40000000000	0.52889560937544	62.689943764496	376.73031346177	0.00000000000000
315.01000000000	0.53204330619009	60.722729377446	376.73031346177	0.00000000000000
315.62000000000	0.53524070220638	58.772188580723	376.73031346177	0.00000000000000
316.23000000000	0.53849402697345	56.833764612580	376.73031346177	0.00000000000000
316.84000000000	0.54180549800420	54.903066003675	376.73031346177	0.00000000000000
317.45000000000	0.54517343510355	52.975911348678	376.73031346177	0.00000000000000
318.06000000000	0.54859245404379	51.048369266761	376.73031346177	0.00000000000000
318.67000000000	0.55205372872338	49.116791939706	376.73031346177	0.00000000000000
319.28000000000	0.55554530840812	47.177841114938	376.73031346177	0.00000000000000
319.89000000000	0.55905247511494	45.228505996762	376.73031346177	0.00000000000000
320.50000000000	0.56255812569977	43.266112973333	376.73031346177	0.00000000000000
321.11000000000	0.56604316369762	41.288327597137	376.73031346177	0.00000000000000
321.72000000000	0.56948688729224	39.293149621458	376.73031346177	0.00000000000000
322.33000000000	0.57286736177050	37.278902176285	376.73031346177	0.00000000000000
322.94000000000	0.57616176721927	35.244216338834	376.73031346177	0.00000000000000
323.55000000000	0.57934671483020	33.188012422416	376.73031346177	0.00000000000000
324.16000000000	0.58239852779043	31.109479286508	376.73031346177	0.00000000000000
324.77000000000	0.58529348519550	29.008052879711	376.73031346177	0.00000000000000
325.38000000000	0.58800802960514	26.883395086345	376.73031346177	0.00000000000000
325.99000000000	0.59051894070312	24.735373776640	376.73031346177	0.00000000000000
326.60000000000	0.59280347898310	22.564044777036	376.73031346177	0.00000000000000
327.21000000000	0.59483950446498	20.369636294745	376.73031346177	0.00000000000000
327.82000000000	0.59660557617088	18.152536159139	376.73031346177	0.00000000000000
328.43000000000	0.59808103849495	15.913282087779	376.73031346177	0.00000000000000
329.04000000000	0.59924610072758	13.652555049670	376.73031346177	0.00000000000000
329.65000000000	0.60008191588706	11.371175682917	376.73031346177	0.00000000000000
330.26000000000	0.60057066470734	9.0701036265262	376.73031346177	0.00000000000000
330.87000000000	0.60069565016069	6.7504395438083	376.73031346177	0.00000000000000
331.48000000000	0.60044140728103	4.4134295439474	376.73031346177	0.00000000000000
332.09000000000	0.59979383231056	2.0604716450009	376.73031346177	0.00000000000000
332.70000000000	0.59874033432462	-0.30687613796134	376.73031346177	0.00000000000000
333.31000000000	0.59727001149662	-2.6868865551551	376.73031346177	0.00000000000000
333.92000000000	0.59537385304264	-5.0776532722565	376.73031346177	0.00000000000000
334.53000000000	0.59304496662738	-7.4770810126973	376.73031346177	0.00000000000000
335.14000000000	0.59027882961786	-9.8828763694074	376.73031346177	0.00000000000000
335.75000000000	0.58707356103987	-12.292540043226	376.73031346177	0.00000000000000
336.36000000000	0.58343020943669	-14.703361351222	376.73031346177	0.00000000000000
336.97000000000	0.57935305007237	-17.112415938279	376.73031346177	0.00000000000000
337.58000000000	0.57484988310179	-19.516567715851	376.73031346177	0.00000000000000
338.19000000000	0.56993232249998	-21.912476136990	376.73031346177	0.00000000000000
338.80000000000	0.56461606377769	-24.296609988546	376.73031346177	0.00000000000000
339.41000000000	0.55892111689806	-26.665268928628	376.73031346177	0.00000000000000
340.02000000000	0.55287198945937	-29.014614005612	376.73031346177	0.00000000000000
340.63000000000	0.54649780424221	-31.340708345875	376.73031346177	0.00000000000000
341.24000000000	0.53983233476947	-33.639569068979	376.73031346177	0.00000000000000
341.85000000000	0.53291394273243	-35.907231255735	376.73031346177	0.00000000000000
342.46000000000	0.52578540213559	-38.139824428817	376.73031346177	0.00000000000000
343.07000000000	0.51849359693617	-40.333661480385	376.73031346177	0.00000000000000
343.68000000000	0.51108908191669	-42.485339274059	376.73031346177	0.00000000000000
344.29000000000	0.50362550061477	-44.591849248781	376.73031346177	0.00000000000000
344.90000000000	0.49615885938359	-46.650695268007	376.73031346177	0.00000000000000
345.51000000000	0.48874666304056	-48.660014727832	376.73031346177	0.00000000000000
346.12000000000	0.48144692495979	-50.618697639794	376.73031346177	0.00000000000000
346.73000000000	0.47431707262467	-52.526497162869	376.73031346177	0.00000000000000
347.34000000000	0.46741277817350	-54.384124046080	376.73031346177	0.00000000000000
347.95000000000	0.46078675175363	-56.193316866269	376.73031346177	0.00000000000000
348.56000000000	0.45448754278344	-57.956880024314	376.73031346177	0.00000000000000
349.17000000000	0.44855839960287	-59.678682387192	376.73031346177	0.00000000000000
349.78000000000	0.44303624052747	-61.363611342253	376.73031346177	0.00000000000000
350.39000000000	0.43795078816570	-63.017479839804	376.73031346177	0.00000000000000
351.00000000000	0.43332391345525	-64.646887547496	376.73031346177	0.00000000000000
351.61000000000	0.42916922612934	-66.259041157883	376.73031346177	0.00000000000000
352.22000000000	0.42549193474035	-67.861542678191	376.73031346177	0.00000000000000
352.83000000000	0.42228898306852	-69.462157638762	376.73031346177	0.00000000000000
353.44000000000	0.41954945235900	-71.068577096115	376.73031346177	0.00000000000000
354.05000000000	0.41725520226402	-72.688187762806	376.73031346177	0.00000000000000
354.66000000000	0.41538170945999	-74.327863501783	376.73031346177	0.00000000000000
355.27000000000	0.41389905312351	-75.993788973936	376.73031346177	0.00000000000000
355.88000000000	0.41277299161348	-77.691322835684	376.73031346177	0.00000000000000
356.49000000000	0.41196607491093	-79.424904079123	376.73031346177	0.00000000000000
357.10000000000	0.41143874202420	-81.198001424304	376.73031346177	0.00000000000000
357.71000000000	0.41115036058399	-83.013102548671	376.73031346177	0.00000000000000
358.32000000000	0.41106017589023	-84.871737650458	376.73031346177	0.00000000000000
358.93000000000	0.41112814739048	-86.774530492832	376.73031346177	0.00000000000000
359.54000000000	0.41131566082346	-88.721269613347	376.73031346177	0.00000000000000
360.15000000000	0.41158611321773	-90.710992652223	376.73031346177	0.00000000000000
360.76000000000	0.41190537510597	-92.742077544340	376.73031346177	0.00000000000000
361.37000000000	0.41224213952180	-94.812335418818	376.73031346177	0.00000000000000
361.98000000000	0.41256817065463	-96.919101269227	376.73031346177	0.00000000000000
362.59000000000	0.41285846667538	-99.059319652791	376.73031346177	0.00000000000000
363.20000000000	0.41309135152038	-101.22962375279	376.73031346177	0.00000000000000
363.81000000000	0.41324850966425	-103.42640704196	376.73031346177	0.00000000000000
364.42000000000	0.41331497643768	-105.64588749718	376.73031346177	0.00000000000000
365.03000000000	0.41327909452062	-107.88416484107	376.73031346177	0.00000000000000
365.64000000000	0.41313244508543	-110.13727164293	376.73031346177	0.00000000000000
366.25000000000	0.41286975984428	-112.40121932221	376.73031346177	0.00000000000000
366.86000000000	0.41248881809665	-114.67204018892	376.73031346177	0.00000000000000
367.47000000000	0.41199033086757	-116.94582664735	376.73031346177	0.00000000000000
368.08000000000	0.41137781244428	-119.21876860161	376.73031346177	0.00000000000000
368.69000000000	0.41065743811272	-121.48718994800	376.73031346177	0.00000000000000
369.30000000000	0.40983788571320	-123.74758482962	376.73031346177	0.00000000000000
369.91000000000	0.40893015781970	-125.99665407317	376.73031346177	0.00000000000000
370.52000000000	0.40794738094107	-128.23134193341	376.73031346177	0.00000000000000
371.13000000000	0.40690457818161	-130.44887294690	376.73031346177	0.00000000000000
371.74000000000	0.40581841231126	-132.64678835640	376.73031346177	0.00000000000000
372.35000000000	0.40470689719422	-134.82298122647	376.73031346177	0.00000000000000
372.96000000000	0.40358907699671	-136.97572905193	376.73031346177	0.00000000000000
373.57000000000	0.40248467449531	-139.10372239108	376.73031346177	0.00000000000000
374.18000000000	0.40141371204977	-141.20608786469	376.73031346177	0.00000000000000
374.79000000000	0.40039611125647	-143.28240378306	376.73031346177	0.00000000000000
375.40000000000	0.39945127978436	-145.33270672488	376.73031346177	0.00000000000000
376.01000000000	0.39859769619935	-147.35748761434	376.73031346177	0.00000000000000
376.62000000000	0.39785250547028	-149.35767623503	376.73031346177	0.00000000000000
377.23000000000	0.39723113908556	-151.33461366962	376.73031346177	0.00000000000000
377.84000000000	0.39674697409071	-153.29001283214	376.73031346177	0.00000000000000
378.45000000000	0.39641104474195	-155.22590801286	376.73031346177	0.00000000000000
379.06000000000	0.39623181880532	-157.14459511557	376.73031346177	0.00000000000000
379.67000000000	0.39621504786847	-159.04856495655	376.73031346177	0.00000000000000
380.28000000000	0.39636369753485	-160.94043253690	376.73031346177	0.00000000000000
380.89000000000	0.39667795929981	-162.82286553282	376.73031346177	0.00000000000000
381.50000000000	0.39715534159196	-164.69851533153	376.73031346177	0.00000000000000
382.11000000000	0.39779083326114	-166.56995376246	376.73031346177	0.00000000000000
382.72000000000	0.39857712904806	-168.43961825560	376.73031346177	0.00000000000000
383.33000000000	0.39950490356409	-170.30976754720	376.73031346177	0.00000000000000
383.94000000000	0.40056311824114	-172.18244931537	376.73031346177	0.00000000000000
384.55000000000	0.40173934467413	-174.05948033801	376.73031346177	0.00000000000000
385.16000000000	0.40302008776358	-175.94243899612	376.73031346177	0.00000000000000
385.77000000000	0.40439109297828	-177.83266925609	376.73031346177	0.00000000000000
386.38000000000	0.40583762374265	-179.73129469942	376.73031346177	0.00000000000000
386.99000000000	0.40734469722073	178.36075925070	376.73031346177	0.00000000000000
387.60000000000	0.40889726942833	176.44273702267	376.73031346177	0.00000000000000
388.21000000000	0.41048036348007	174.51402075034	376.73031346177	0.00000000000000
388.82000000000	0.41207913772481	172.57409652710	376.73031346177	0.00000000000000
389.43000000000	0.41367889343045	170.62252119717	376.73031346177	0.00000000000000
390.04000000000	0.41526502446743	168.65889163913	376.73031346177	0.00000000000000
390.65000000000	0.41682291405298	166.68281825554	376.73031346177	0.00000000000000
391.26000000000	0.41833778600840	164.69390409674	376.73031346177	0.00000000000000
391.87000000000	0.41979452010460	162.69173072975	376.73031346177	0.00000000000000
392.48000000000	0.42117744287364	160.67585162067	376.73031346177	0.00000000000000
393.09000000000	0.42247010668353	158.64579344028	376.73031346177	0.00000000000000
393.70000000000	0.42365507084183	156.60106533328	376.73031346177	0.00000000000000
394.31000000000	0.42471369895050	154.54117582123	376.73031346177	0.00000000000000
394.92000000000	0.42562598664729	152.46565664793	376.73031346177	0.00000000000000
395.53000000000	0.42637043327145	150.37409253764	376.73031346177	0.00000000000000
396.14000000000	0.42692397002857	148.26615553674	376.73031346177	0.00000000000000
396.75000000000	0.42726195622466	146.14164237739	376.73031346177	0.00000000000000
397.36000000000	0.42735825465105	144.00051319550	376.73031346177	0.00000000000000
397.97000000000	0.42718539794373	141.84293009926	376.73031346177	0.00000000000000
398.58000000000	0.42671485997461	139.66929484755	376.73031346177	0.00000000000000
399.19000000000	0.42591744767993	137.48028687467	376.73031346177	0.00000000000000
399.80000000000	0.42476381908262	135.27690674920	376.73031346177	0.00000000000000
400.41000000000	0.42322508938282	133.06053498666	376.73031346177	0.00000000000000
401.02000000000	0.42127338735446	130.83301558906	376.73031346177	0.00000000000000
401.63000000000	0.41888212462075	128.59675476459	376.73031346177	0.00000000000000
402.24000000000	0.41602585446185	126.35478771932	376.73031346177	0.00000000000000
402.85000000000	0.41268005750079	124.11075744570	376.73031346177	0.00000000000000
403.46000000000	0.40882151297139	121.86882126756	376.73031346177	0.00000000000000
404.07000000000	0.40442944256136	119.63358357293	376.73031346177	0.00000000000000
404.68000000000	0.39948686719445	117.41012391236	376.73031346177	0.00000000000000
405.29000000000	0.39398159630072	115.20409514559	376.73031346177	0.00000000000000
405.90000000000	0.38790677281620	113.02183314677	376.73031346177	0.00000000000000
406.51000000000	0.38126119070015	110.87045016655	376.73031346177	0.00000000000000
407.12000000000	0.37404956951080	108.75791507693	376.73031346177	0.00000000000000
407.73000000000	0.36628285521806	106.69313283621	376.73031346177	0.00000000000000
408.34000000000	0.35797854972708	104.68603267961	376.73031346177	0.00000000000000
408.95000000000	0.34916105406742	102.74766995125	376.73031346177	0.00000000000000
409.56000000000	0.33986201382728	100.89034323156	376.73031346177	0.00000000000000
410.17000000000	0.33012066359243	99.127726149267	376.73031346177	0.00000000000000
410.78000000000	0.31998417433854	97.475011002516	376.73031346177	0.00000000000000
411.39000000000	0.30950801291010	95.949058129630	376.73031346177	0.00000000000000
412.00000000000	0.29875632579778	94.568539984548	376.73031346177	0.00000000000000
412.61000000000	0.28780235985886	93.354061080523	376.73031346177	0.00000000000000
413.22000000000	0.27672892897096	92.328223140163	376.73031346177	0.00000000000000
413.83000000000	0.26562892525798	91.515587528759	376.73031346177	0.00000000000000
414.44000000000	0.25460585248284	90.942463097608	376.73031346177	0.00000000000000
415.05000000000	0.24377432201667	90.636416679028	376.73031346177	0.00000000000000
415.66000000000	0.23326039211691	90.625368222400	376.73031346177	0.00000000000000
416.27000000000	0.22320154382383	90.936101528540	376.73031346177	0.00000000000000
416.88000000000	0.21374597230341	91.592013965492	376.73031346177	0.00000000000000
417.49000000000	0.20505074669399	92.609978723191	376.73031346177	0.00000000000000
418.10000000000	0.19727829850663	93.996349128773	376.73031346177	0.00000000000000
418.71000000000	0.19059072196958	95.742440164728	376.73031346177	0.00000000000000
419.32000000000	0.18514162478874	97.820270700621	376.73031346177	0.00000000000000
419.93000000000	0.18106584871778	100.17981397907	376.73031346177	0.00000000000000
420.54000000000	0.17846824890511	102.74919927715	376.73031346177	0.00000000000000
421.15000000000	0.17741359794089	105.43889278110	376.73031346177	0.00000000000000
421.76000000000	0.17792006561459	108.14974601938	376.73031346177	0.00000000000000
422.37000000000	0.17995818282096	110.78333087168	376.73031346177	0.00000000000000
422.98000000000	0.18345575922460	113.25199017128	376.73031346177	0.00000000000000
423.59000000000	0.18830751510621	115.48616301215	376.73031346177	0.00000000000000
424.20000000000	0.19438703993092	117.43770651006	376.73031346177	0.00000000000000
424.81000000000	0.20155854978216	119.07939491573	376.73031346177	0.00000000000000
425.42000000000	0.20968660937838	120.40177579972	376.73031346177	0.00000000000000
426.03000000000	0.21864298566316	121.40882508226	376.73031346177	0.00000000000000
426.64000000000	0.22831064376796	122.11355997289	376.73031346177	0.00000000000000
427.25000000000	0.23858538436104	122.53428920706	376.73031346177	0.00000000000000
427.86000000000	0.24937578260804	122.69175620569	376.73031346177	0.00000000000000
428.47000000000	0.26060204599445	122.60715884746	376.73031346177	0.00000000000000
429.08000000000	0.27219427864437	122.30090008762	376.73031346177	0.00000000000000
429.69000000000	0.28409049847991	121.79188914186	376.73031346177	0.00000000000000
430.30000000000	0.29623463511968	121.09722756469	376.73031346177	0.00000000000000
430.91000000000	0.30857464971241	120.23214744738	376.73031346177	0.00000000000000
431.52000000000	0.32106085964766	119.21010362596	376.73031346177	0.00000000000000
432.13000000000	0.33364451409138	118.04295128847	376.73031346177	0.00000000000000
432.74000000000	0.34627664345698	116.74116296345	376.73031346177	0.00000000000000
433.35000000000	0.35890719165140	115.31405513386	376.73031346177	0.00000000000000
433.96000000000	0.37148443033537	113.77000597711	376.73031346177	0.00000000000000
434.57000000000	0.38395464705762	112.11665333462	376.73031346177	0.00000000000000
435.18000000000	0.39626209260052	110.36106707967	376.73031346177	0.00000000000000
435.79000000000	0.40834916661313	108.50989340769	376.73031346177	0.00000000000000
