#
#"Frequency / GHz"	"S1,1 [Mag]"	"S1,1 [Pha in deg.]"	"Ref.Imp. [Mag]"	"Ref.Imp. [Pha in deg.]"
#---------------------------------------------------------------------------------------------
250.00000000000	0.68593137929779	106.99809938185	376.73031346177	0.00000000000000
250.70000000000	0.69508694599211	105.37588235693	376.73031346177	0.00000000000000
251.40000000000	0.70377228753674	103.67444498715	376.73031346177	0.00000000000000
252.10000000000	0.71191214721626	101.90248984945	376.73031346177	0.00000000000000
252.80000000000	0.71945127377356	100.06793946203	376.73031346177	0.00000000000000
253.50000000000	0.72635087653625	98.177788679945	376.73031346177	0.00000000000000
254.20000000000	0.73258522692182	96.238054339757	376.73031346177	0.00000000000000
254.90000000000	0.73813859980227	94.253790881052	376.73031346177	0.00000000000000
255.60000000000	0.74300265151572	92.229146531718	376.73031346177	0.00000000000000
256.30000000000	0.74717425996968	90.167440536409	376.73031346177	0.00000000000000
257.00000000000	0.75065380250294	88.071247175728	376.73031346177	0.00000000000000
257.70000000000	0.75344381455896	85.942476771587	376.73031346177	0.00000000000000
258.40000000000	0.75554795315835	83.782447550555	376.73031346177	0.00000000000000
259.10000000000	0.75697018122530	81.591945258487	376.73031346177	0.00000000000000
259.80000000000	0.75771409051609	79.371269885123	376.73031346177	0.00000000000000
260.50000000000	0.75778229101518	77.120270796024	376.73031346177	0.00000000000000
261.20000000000	0.75717581152194	74.838372955884	376.73031346177	0.00000000000000
261.90000000000	0.75589347727582	72.524597721000	376.73031346177	0.00000000000000
262.60000000000	0.75393125261439	70.177581875130	376.73031346177	0.00000000000000
263.30000000000	0.75128155641588	67.795598258019	376.73031346177	0.00000000000000
264.00000000000	0.74793257273916	65.376580653188	376.73031346177	0.00000000000000
264.70000000000	0.74386758730919	62.918154777928	376.73031346177	0.00000000000000
265.40000000000	0.73906438269703	60.417676484796	376.73031346177	0.00000000000000
266.10000000000	0.73349472300358	57.872277817158	376.73031346177	0.00000000000000
266.80000000000	0.72712395520645	55.278921463413	376.73031346177	0.00000000000000
267.50000000000	0.71991075169804	52.634464435293	376.73031346177	0.00000000000000
268.20000000000	0.71180701900771	49.935732403197	376.73031346177	0.00000000000000
268.90000000000	0.70275800239296	47.179606962202	376.73031346177	0.00000000000000
269.60000000000	0.69270262511252	44.363129075908	376.73031346177	0.00000000000000
270.30000000000	0.68157411405237	41.483622964833	376.73031346177	0.00000000000000
271.00000000000	0.66930097854600	38.538845701457	376.73031346177	0.00000000000000
271.70000000000	0.65580842454370	35.527168692264	376.73031346177	0.00000000000000
272.40000000000	0.64102029881044	32.447798032952	376.73031346177	0.00000000000000
273.10000000000	0.62486166366256	29.301041390234	376.73031346177	0.00000000000000
273.80000000000	0.60726209698126	26.088629600415	376.73031346177	0.00000000000000
274.50000000000	0.58815978904038	22.814101652187	376.73031346177	0.00000000000000
275.20000000000	0.56750646096938	19.483262340528	376.73031346177	0.00000000000000
275.90000000000	0.54527305442131	16.104723087090	376.73031346177	0.00000000000000
276.60000000000	0.52145603652434	12.690539068950	376.73031346177	0.00000000000000
277.30000000000	0.49608403320507	9.2569613569248	376.73031346177	0.00000000000000
278.00000000000	0.46922436202421	5.8253336450046	376.73031346177	0.00000000000000
278.70000000000	0.44098890971737	2.4231830667136	376.73031346177	0.00000000000000
279.40000000000	0.41153872910685	-0.91441091378611	376.73031346177	0.00000000000000
280.10000000000	0.38108676278926	-4.1430284037806	376.73031346177	0.00000000000000
280.80000000000	0.34989828478993	-7.2064692959989	376.73031346177	0.00000000000000
281.50000000000	0.31828902315181	-10.033287770484	376.73031346177	0.00000000000000
282.20000000000	0.28662150487799	-12.531715741999	376.73031346177	0.00000000000000
282.90000000000	0.25530095261576	-14.582095509323	376.73031346177	0.00000000000000
283.60000000000	0.22477305956655	-16.025602641749	376.73031346177	0.00000000000000
284.30000000000	0.19552716452259	-16.647913855401	376.73031346177	0.00000000000000
285.00000000000	0.16810955989892	-16.157596072732	376.73031346177	0.00000000000000
285.70000000000	0.14315174716715	-14.164801007406	376.73031346177	0.00000000000000
286.40000000000	0.12141254140699	-10.185680769589	376.73031346177	0.00000000000000
287.10000000000	0.10380612108960	-3.7469200981471	376.73031346177	0.00000000000000
287.80000000000	0.091317579365793	5.2818682966004	376.73031346177	0.00000000000000
288.50000000000	0.084645168889610	16.164598050213	376.73031346177	0.00000000000000
289.20000000000	0.083640941944026	27.224780967709	376.73031346177	0.00000000000000
289.90000000000	0.087151447524550	36.786159612144	376.73031346177	0.00000000000000
290.60000000000	0.093580059758735	44.109521718733	376.73031346177	0.00000000000000
291.30000000000	0.10154208676885	49.313996589106	376.73031346177	0.00000000000000
292.00000000000	0.11010591172053	52.852728946130	376.73031346177	0.00000000000000
292.70000000000	0.11873944268589	55.180949527384	376.73031346177	0.00000000000000
293.40000000000	0.12718608288029	56.651450610266	376.73031346177	0.00000000000000
294.10000000000	0.13536072369855	57.510011924940	376.73031346177	0.00000000000000
294.80000000000	0.14327737105354	57.916973596048	376.73031346177	0.00000000000000
295.50000000000	0.15100013258999	57.969938878121	376.73031346177	0.00000000000000
296.20000000000	0.15860928894679	57.722187972669	376.73031346177	0.00000000000000
296.90000000000	0.16617746808856	57.196940466436	376.73031346177	0.00000000000000
297.60000000000	0.17375347879333	56.398472675492	376.73031346177	0.00000000000000
298.30000000000	0.18135268515276	55.320786891669	376.73031346177	0.00000000000000
299.00000000000	0.18895321478242	53.954149305297	376.73031346177	0.00000000000000
299.70000000000	0.19649718331583	52.289639983858	376.73031346177	0.00000000000000
300.40000000000	0.20389583706084	50.321879849655	376.73031346177	0.00000000000000
301.10000000000	0.21103731013100	48.050211104343	376.73031346177	0.00000000000000
301.80000000000	0.21779567465622	45.478706330271	376.73031346177	0.00000000000000
302.50000000000	0.22404012973523	42.615412500344	376.73031346177	0.00000000000000
303.20000000000	0.22964345789182	39.471195743382	376.73031346177	0.00000000000000
303.90000000000	0.23448919509240	36.058467723429	376.73031346177	0.00000000000000
304.60000000000	0.23847724959354	32.389977512605	376.73031346177	0.00000000000000
305.30000000000	0.24152793286285	28.477767419854	376.73031346177	0.00000000000000
306.00000000000	0.24358452364741	24.332328229980	376.73031346177	0.00000000000000
306.70000000000	0.24461457989477	19.961949837915	376.73031346177	0.00000000000000
307.40000000000	0.24461025528828	15.372243428288	376.73031346177	0.00000000000000
308.10000000000	0.24358788170261	10.565805901938	376.73031346177	0.00000000000000
308.80000000000	0.24158705855066	5.5420016432572	376.73031346177	0.00000000000000
309.50000000000	0.23866945462449	0.29684786475199	376.73031346177	0.00000000000000
310.20000000000	0.23491748409119	-5.1769939732680	376.73031346177	0.00000000000000
310.90000000000	0.23043296870990	-10.890097335721	376.73031346177	0.00000000000000
311.60000000000	0.22533584261250	-16.855971730318	376.73031346177	0.00000000000000
312.30000000000	0.21976289079887	-23.090507947356	376.73031346177	0.00000000000000
313.00000000000	0.21386643283485	-29.611059327543	376.73031346177	0.00000000000000
313.70000000000	0.20781276490428	-36.435026976011	376.73031346177	0.00000000000000
314.40000000000	0.20178005763835	-43.577814390928	376.73031346177	0.00000000000000
315.10000000000	0.19595528854947	-51.050061843767	376.73031346177	0.00000000000000
315.80000000000	0.19052970446652	-58.854197479871	376.73031346177	0.00000000000000
316.50000000000	0.18569233046944	-66.980580029540	376.73031346177	0.00000000000000
317.20000000000	0.18162126093190	-75.403849341547	376.73031346177	0.00000000000000
317.90000000000	0.17847296206512	-84.080453894387	376.73031346177	0.00000000000000
318.60000000000	0.17637056118541	-92.948488711577	376.73031346177	0.00000000000000
319.30000000000	0.17539288654129	-101.93070730372	376.73031346177	0.00000000000000
320.00000000000	0.17556646277062	-110.94076203329	376.73031346177	0.00000000000000
320.70000000000	0.17686237941500	-119.89161395178	376.73031346177	0.00000000000000
321.40000000000	0.17919886740659	-128.70418953610	376.73031346177	0.00000000000000
322.10000000000	0.18244894760239	-137.31426483846	376.73031346177	0.00000000000000
322.80000000000	0.18645132245463	-145.67628875374	376.73031346177	0.00000000000000
323.50000000000	0.19102224764907	-153.76396925074	376.73031346177	0.00000000000000
324.20000000000	0.19596646172887	-161.56835475069	376.73031346177	0.00000000000000
324.90000000000	0.20108601916654	-169.09452975610	376.73031346177	0.00000000000000
325.60000000000	0.20618665577139	-176.35795464484	376.73031346177	0.00000000000000
326.30000000000	0.21108186761827	176.61885138778	376.73031346177	0.00000000000000
327.00000000000	0.21559515667989	169.80893820747	376.73031346177	0.00000000000000
327.70000000000	0.21956095644008	163.18277725149	376.73031346177	0.00000000000000
328.40000000000	0.22282469596642	156.70939697019	376.73031346177	0.00000000000000
329.10000000000	0.22524236805044	150.35691299921	376.73031346177	0.00000000000000
329.80000000000	0.22667988131101	144.09256147070	376.73031346177	0.00000000000000
330.50000000000	0.22701241825344	137.88230986516	376.73031346177	0.00000000000000
331.20000000000	0.22612399837824	131.69006938243	376.73031346177	0.00000000000000
331.90000000000	0.22390746055371	125.47646919859	376.73031346177	0.00000000000000
332.60000000000	0.22026513772192	119.19706987808	376.73031346177	0.00000000000000
333.30000000000	0.21511061445104	112.79977412754	376.73031346177	0.00000000000000
334.00000000000	0.20837216726994	106.22100697199	376.73031346177	0.00000000000000
334.70000000000	0.19999885928204	99.379929091143	376.73031346177	0.00000000000000
335.40000000000	0.18997093977992	92.169420805044	376.73031346177	0.00000000000000
336.10000000000	0.17831749018110	84.441676764184	376.73031346177	0.00000000000000
336.80000000000	0.16514679303851	75.984803020018	376.73031346177	0.00000000000000
337.50000000000	0.15069994905050	66.484943273611	376.73031346177	0.00000000000000
338.20000000000	0.13544793238280	55.468478162017	376.73031346177	0.00000000000000
338.90000000000	0.12026721592524	42.233310479891	376.73031346177	0.00000000000000
339.60000000000	0.10673018007674	25.856366863625	376.73031346177	0.00000000000000
340.30000000000	0.097417488549081	5.6054068296049	376.73031346177	0.00000000000000
341.00000000000	0.095641536754643	-17.804938982109	376.73031346177	0.00000000000000
341.70000000000	0.10371008641060	-41.358958952688	376.73031346177	0.00000000000000
342.40000000000	0.12121222260150	-61.945129405794	376.73031346177	0.00000000000000
343.10000000000	0.14591498661563	-78.713827732285	376.73031346177	0.00000000000000
343.80000000000	0.17554320667966	-92.343074750244	376.73031346177	0.00000000000000
344.50000000000	0.20840283342818	-103.74350756116	376.73031346177	0.00000000000000
345.20000000000	0.24329001263501	-113.60837679683	376.73031346177	0.00000000000000
345.90000000000	0.27930736808536	-122.39620346276	376.73031346177	0.00000000000000
346.60000000000	0.31574514522218	-130.39986926157	376.73031346177	0.00000000000000
347.30000000000	0.35202081716250	-137.80657577498	376.73031346177	0.00000000000000
348.00000000000	0.38765186628496	-144.73764313700	376.73031346177	0.00000000000000
348.70000000000	0.42224426068208	-151.27332347787	376.73031346177	0.00000000000000
349.40000000000	0.45548680239025	-157.46814777753	376.73031346177	0.00000000000000
350.10000000000	0.48714636060376	-163.36049227388	376.73031346177	0.00000000000000
350.80000000000	0.51706185560865	-168.97859594218	376.73031346177	0.00000000000000
351.50000000000	0.54513649142584	-174.34436071032	376.73031346177	0.00000000000000
352.20000000000	0.57132859127017	-179.47574218732	376.73031346177	0.00000000000000
352.90000000000	0.59564174041956	175.61176557866	376.73031346177	0.00000000000000
353.60000000000	0.61811497688125	170.90422884493	376.73031346177	0.00000000000000
354.30000000000	0.63881363558825	166.38874571089	376.73031346177	0.00000000000000
355.00000000000	0.65782125116750	162.05315140750	376.73031346177	0.00000000000000
355.70000000000	0.67523272468256	157.88586570536	376.73031346177	0.00000000000000
356.40000000000	0.69114879655398	153.87582275190	376.73031346177	0.00000000000000
357.10000000000	0.70567175324290	150.01244529225	376.73031346177	0.00000000000000
357.80000000000	0.71890222708959	146.28563980522	376.73031346177	0.00000000000000
358.50000000000	0.73093691783929	142.68579875093	376.73031346177	0.00000000000000
359.20000000000	0.74186705990699	139.20380238493	376.73031346177	0.00000000000000
359.90000000000	0.75177747134148	135.83101651753	376.73031346177	0.00000000000000
360.60000000000	0.76074604092451	132.55928495180	376.73031346177	0.00000000000000
361.30000000000	0.76884353341421	129.38091666216	376.73031346177	0.00000000000000
362.00000000000	0.77613361617676	126.28866845175	376.73031346177	0.00000000000000
362.70000000000	0.78267303145520	123.27572410772	376.73031346177	0.00000000000000
363.40000000000	0.78851185646518	120.33567112629	376.73031346177	0.00000000000000
364.10000000000	0.79369380821869	117.46247601320	376.73031346177	0.00000000000000
364.80000000000	0.79825656166429	114.65045904728	376.73031346177	0.00000000000000
365.50000000000	0.80223205878626	111.89426926449	376.73031346177	0.00000000000000
366.20000000000	0.80564679317293	109.18886030128	376.73031346177	0.00000000000000
366.90000000000	0.80852205968731	106.52946763993	376.73031346177	0.00000000000000
367.60000000000	0.81087416265071	103.91158773189	376.73031346177	0.00000000000000
368.30000000000	0.81271457873028	101.33095943930	376.73031346177	0.00000000000000
369.00000000000	0.81405007280151	98.783548232429	376.73031346177	0.00000000000000
369.70000000000	0.81488276669128	96.265533610810	376.73031346177	0.00000000000000
370.40000000000	0.81521016212138	93.773300281599	376.73031346177	0.00000000000000
371.10000000000	0.81502512057394	91.303433731094	376.73031346177	0.00000000000000
371.80000000000	0.81431580439297	88.852720968568	376.73031346177	0.00000000000000
372.50000000000	0.81306558543746	86.418157410242	376.73031346177	0.00000000000000
373.20000000000	0.81125293025006	83.996961110971	376.73031346177	0.00000000000000
373.90000000000	0.80885127428183	81.586595848761	376.73031346177	0.00000000000000
374.60000000000	0.80582890254408	79.184804928680	376.73031346177	0.00000000000000
375.30000000000	0.80214886052640	76.789658002900	376.73031346177	0.00000000000000
376.00000000000	0.79776892775906	74.399613702967	376.73031346177	0.00000000000000
376.70000000000	0.79264169747512	72.013601441111	376.73031346177	0.00000000000000
377.40000000000	0.78671481989158	69.631126336927	376.73031346177	0.00000000000000
378.10000000000	0.77993148402077	67.252401816728	376.73031346177	0.00000000000000
378.80000000000	0.77223123370869	64.878514928095	376.73031346177	0.00000000000000
379.50000000000	0.76355123731232	62.511629663199	376.73031346177	0.00000000000000
380.20000000000	0.75382815568428	60.155233350777	376.73031346177	0.00000000000000
380.90000000000	0.74300077707919	57.814430084274	376.73031346177	0.00000000000000
381.60000000000	0.73101360521994	55.496282642635	376.73031346177	0.00000000000000
382.30000000000	0.71782159010195	53.210199621216	376.73031346177	0.00000000000000
383.00000000000	0.70339616853783	50.968356403448	376.73031346177	0.00000000000000
383.70000000000	0.68773271729773	48.786125699805	376.73031346177	0.00000000000000
384.40000000000	0.67085939683931	46.682473882672	376.73031346177	0.00000000000000
385.10000000000	0.65284715749896	44.680251404789	376.73031346177	0.00000000000000
385.80000000000	0.63382037512305	42.806267924913	376.73031346177	0.00000000000000
386.50000000000	0.61396717248584	41.090996089560	376.73031346177	0.00000000000000
387.20000000000	0.59354798121576	39.567697686439	376.73031346177	0.00000000000000
387.90000000000	0.57290035814158	38.270726883175	376.73031346177	0.00000000000000
388.60000000000	0.55243759882574	37.232767770812	376.73031346177	0.00000000000000
389.30000000000	0.53263847886966	36.480857788225	376.73031346177	0.00000000000000
390.00000000000	0.51402578671441	36.031299066443	376.73031346177	0.00000000000000
390.70000000000	0.49713254878178	35.884011075597	376.73031346177	0.00000000000000
391.40000000000	0.48245728233862	36.017481449168	376.73031346177	0.00000000000000
392.10000000000	0.47041315142178	36.385994697459	376.73031346177	0.00000000000000
392.80000000000	0.46127964570548	36.920840046413	376.73031346177	0.00000000000000
393.50000000000	0.45516752627504	37.536337513377	376.73031346177	0.00000000000000
394.20000000000	0.45200631207288	38.139859559098	376.73031346177	0.00000000000000
394.90000000000	0.45155800865101	38.643346232459	376.73031346177	0.00000000000000
395.60000000000	0.45345317320590	38.973165024948	376.73031346177	0.00000000000000
396.30000000000	0.45723943858103	39.075991862552	376.73031346177	0.00000000000000
397.00000000000	0.46243095824064	38.920105445042	376.73031346177	0.00000000000000
397.70000000000	0.46854979423905	38.493036087652	376.73031346177	0.00000000000000
398.40000000000	0.47515482925475	37.797217169295	376.73031346177	0.00000000000000
399.10000000000	0.48185794802737	36.845169742771	376.73031346177	0.00000000000000
399.80000000000	0.48832976953497	35.655217972661	376.73031346177	0.00000000000000
400.50000000000	0.49429809490921	34.248175533041	376.73031346177	0.00000000000000
401.20000000000	0.49954203647861	32.645052875999	376.73031346177	0.00000000000000
401.90000000000	0.50388411830259	30.865635273064	376.73031346177	0.00000000000000
402.60000000000	0.50718189412861	28.927718465302	376.73031346177	0.00000000000000
403.30000000000	0.50932000769913	26.846800132948	376.73031346177	0.00000000000000
404.00000000000	0.51020317518026	24.636066236982	376.73031346177	0.00000000000000
404.70000000000	0.50975028427276	22.306556681747	376.73031346177	0.00000000000000
405.40000000000	0.50788964092172	19.867433967395	376.73031346177	0.00000000000000
406.10000000000	0.50455531396206	17.326308700832	376.73031346177	0.00000000000000
406.80000000000	0.49968449983885	14.689597761906	376.73031346177	0.00000000000000
407.50000000000	0.49321583191120	11.962906563580	376.73031346177	0.00000000000000
408.20000000000	0.48508857726625	9.1514383671169	376.73031346177	0.00000000000000
408.90000000000	0.47524268911640	6.2604430257346	376.73031346177	0.00000000000000
409.60000000000	0.46361970877570	3.2957267273634	376.73031346177	0.00000000000000
410.30000000000	0.45016453399682	0.26425532443289	376.73031346177	0.00000000000000
411.00000000000	0.43482808746413	-2.8251006747730	376.73031346177	0.00000000000000
411.70000000000	0.41757092901271	-5.9606073473950	376.73031346177	0.00000000000000
412.40000000000	0.39836785818815	-9.1263831456988	376.73031346177	0.00000000000000
413.10000000000	0.37721355493031	-12.300609573834	376.73031346177	0.00000000000000
413.80000000000	0.35412931992487	-15.452936021049	376.73031346177	0.00000000000000
414.50000000000	0.32917103775152	-18.540554512821	376.73031346177	0.00000000000000
415.20000000000	0.30243867546699	-21.501991611544	376.73031346177	0.00000000000000
415.90000000000	0.27408812717671	-24.246808888879	376.73031346177	0.00000000000000
416.60000000000	0.24434744095457	-26.637618331994	376.73031346177	0.00000000000000
417.30000000000	0.21354245182250	-28.456931123387	376.73031346177	0.00000000000000
